#   Hz   S  RI   R   50
! 
!  Microstrip line with via fence on Aisler 6 layer HD stackup
!  Line length = combLineTabbed6G_2xthru (54.2mm) - SMA_Rosenbergerv2 fixture (28.9mm) = 23.5mm
!  Substrate and Conductor losses
!
!  Paramter List:
!    lossySubstrate = 1, Flag that indicates if substrate losses were enabled
!    lossyCondSheet = 1, Flag that indicates if the zero thickness conducting sheet model was used
!    w50 = 0.65, Width of the 50Ohm line
!    w50gndfree = 1.225, Seperation between RF trace edges to GND planes
!    lineLength = 23.5, Length of the microstrip transmission line
!    portLength = 8,  
!    measPlaneShiftP1 = 8,  
!    measPlaneShiftP2 = 8,  
!    feedShift = 3.74741,  
!    numViasX = 55,  
!    pcbX = 39.5,  
!    pcbY = 25,  
!    stackupL01th = 0,  
!    stackupSub01th = 0.13626,  
!    stackupL02th = 0,  
!    stackupSub02th = 0.2,  
!    stackupL03th = 0,  
!    viaD03 = 0.3,  
!    viaCpD03 = 0.6,  
!    viaClearD03 = 1,  
!    viaPitch = 0.6,  
!
1.000000e+08    6.441476e-03 -4.869924e-03    9.936643e-01 -9.239086e-02    0.000000e+00  0.000000e+00    0.000000e+00  0.000000e+00
1.199000e+08    6.149136e-03 -5.805914e-03    9.916704e-01 -1.106778e-01    0.000000e+00  0.000000e+00    0.000000e+00  0.000000e+00
1.398000e+08    5.806255e-03 -6.724148e-03    9.893205e-01 -1.289117e-01    0.000000e+00  0.000000e+00    0.000000e+00  0.000000e+00
1.597000e+08    5.413992e-03 -7.621869e-03    9.866170e-01 -1.470840e-01    0.000000e+00  0.000000e+00    0.000000e+00  0.000000e+00
1.796000e+08    4.973663e-03 -8.496402e-03    9.835626e-01 -1.651865e-01    0.000000e+00  0.000000e+00    0.000000e+00  0.000000e+00
1.995000e+08    4.486739e-03 -9.345168e-03    9.801602e-01 -1.832113e-01    0.000000e+00  0.000000e+00    0.000000e+00  0.000000e+00
2.194000e+08    3.954836e-03 -1.016569e-02    9.764132e-01 -2.011505e-01    0.000000e+00  0.000000e+00    0.000000e+00  0.000000e+00
2.393000e+08    3.379708e-03 -1.095561e-02    9.723251e-01 -2.189967e-01    0.000000e+00  0.000000e+00    0.000000e+00  0.000000e+00
2.592000e+08    2.763235e-03 -1.171267e-02    9.678996e-01 -2.367425e-01    0.000000e+00  0.000000e+00    0.000000e+00  0.000000e+00
2.791000e+08    2.107418e-03 -1.243477e-02    9.631406e-01 -2.543809e-01    0.000000e+00  0.000000e+00    0.000000e+00  0.000000e+00
2.990000e+08    1.414364e-03 -1.311992e-02    9.580525e-01 -2.719051e-01    0.000000e+00  0.000000e+00    0.000000e+00  0.000000e+00
3.189000e+08    6.862826e-04 -1.376628e-02    9.526394e-01 -2.893087e-01    0.000000e+00  0.000000e+00    0.000000e+00  0.000000e+00
3.388000e+08   -7.453075e-05 -1.437216e-02    9.469058e-01 -3.065855e-01    0.000000e+00  0.000000e+00    0.000000e+00  0.000000e+00
3.587000e+08   -8.657013e-04 -1.493599e-02    9.408562e-01 -3.237296e-01    0.000000e+00  0.000000e+00    0.000000e+00  0.000000e+00
3.786000e+08   -1.684787e-03 -1.545638e-02    9.344953e-01 -3.407354e-01    0.000000e+00  0.000000e+00    0.000000e+00  0.000000e+00
3.985000e+08   -2.529288e-03 -1.593209e-02    9.278278e-01 -3.575976e-01    0.000000e+00  0.000000e+00    0.000000e+00  0.000000e+00
4.184000e+08   -3.396657e-03 -1.636201e-02    9.208584e-01 -3.743110e-01    0.000000e+00  0.000000e+00    0.000000e+00  0.000000e+00
4.383000e+08   -4.284313e-03 -1.674521e-02    9.135918e-01 -3.908709e-01    0.000000e+00  0.000000e+00    0.000000e+00  0.000000e+00
4.582000e+08   -5.189645e-03 -1.708090e-02    9.060328e-01 -4.072728e-01    0.000000e+00  0.000000e+00    0.000000e+00  0.000000e+00
4.781000e+08   -6.110025e-03 -1.736845e-02    8.981861e-01 -4.235123e-01    0.000000e+00  0.000000e+00    0.000000e+00  0.000000e+00
4.980000e+08   -7.042821e-03 -1.760738e-02    8.900563e-01 -4.395854e-01    0.000000e+00  0.000000e+00    0.000000e+00  0.000000e+00
5.179000e+08   -7.985399e-03 -1.779736e-02    8.816480e-01 -4.554883e-01    0.000000e+00  0.000000e+00    0.000000e+00  0.000000e+00
5.378000e+08   -8.935136e-03 -1.793820e-02    8.729657e-01 -4.712173e-01    0.000000e+00  0.000000e+00    0.000000e+00  0.000000e+00
5.577000e+08   -9.889429e-03 -1.802987e-02    8.640140e-01 -4.867689e-01    0.000000e+00  0.000000e+00    0.000000e+00  0.000000e+00
5.776000e+08   -1.084570e-02 -1.807245e-02    8.547970e-01 -5.021399e-01    0.000000e+00  0.000000e+00    0.000000e+00  0.000000e+00
5.975000e+08   -1.180141e-02 -1.806620e-02    8.453191e-01 -5.173271e-01    0.000000e+00  0.000000e+00    0.000000e+00  0.000000e+00
6.174000e+08   -1.275404e-02 -1.801148e-02    8.355843e-01 -5.323273e-01    0.000000e+00  0.000000e+00    0.000000e+00  0.000000e+00
6.373000e+08   -1.370116e-02 -1.790878e-02    8.255966e-01 -5.471379e-01    0.000000e+00  0.000000e+00    0.000000e+00  0.000000e+00
6.572000e+08   -1.464034e-02 -1.775873e-02    8.153600e-01 -5.617557e-01    0.000000e+00  0.000000e+00    0.000000e+00  0.000000e+00
6.771000e+08   -1.556926e-02 -1.756205e-02    8.048781e-01 -5.761782e-01    0.000000e+00  0.000000e+00    0.000000e+00  0.000000e+00
6.970000e+08   -1.648562e-02 -1.731960e-02    7.941547e-01 -5.904026e-01    0.000000e+00  0.000000e+00    0.000000e+00  0.000000e+00
7.169000e+08   -1.738722e-02 -1.703233e-02    7.831932e-01 -6.044262e-01    0.000000e+00  0.000000e+00    0.000000e+00  0.000000e+00
7.368000e+08   -1.827193e-02 -1.670130e-02    7.719972e-01 -6.182463e-01    0.000000e+00  0.000000e+00    0.000000e+00  0.000000e+00
7.567000e+08   -1.913767e-02 -1.632766e-02    7.605698e-01 -6.318603e-01    0.000000e+00  0.000000e+00    0.000000e+00  0.000000e+00
7.766000e+08   -1.998247e-02 -1.591266e-02    7.489143e-01 -6.452654e-01    0.000000e+00  0.000000e+00    0.000000e+00  0.000000e+00
7.965000e+08   -2.080443e-02 -1.545763e-02    7.370340e-01 -6.584590e-01    0.000000e+00  0.000000e+00    0.000000e+00  0.000000e+00
8.164000e+08   -2.160175e-02 -1.496397e-02    7.249319e-01 -6.714382e-01    0.000000e+00  0.000000e+00    0.000000e+00  0.000000e+00
8.363000e+08   -2.237269e-02 -1.443317e-02    7.126110e-01 -6.842003e-01    0.000000e+00  0.000000e+00    0.000000e+00  0.000000e+00
8.562000e+08   -2.311564e-02 -1.386678e-02    7.000743e-01 -6.967423e-01    0.000000e+00  0.000000e+00    0.000000e+00  0.000000e+00
8.761000e+08   -2.382904e-02 -1.326642e-02    6.873247e-01 -7.090614e-01    0.000000e+00  0.000000e+00    0.000000e+00  0.000000e+00
8.960000e+08   -2.451146e-02 -1.263376e-02    6.743653e-01 -7.211545e-01    0.000000e+00  0.000000e+00    0.000000e+00  0.000000e+00
9.159000e+08   -2.516156e-02 -1.197053e-02    6.611990e-01 -7.330184e-01    0.000000e+00  0.000000e+00    0.000000e+00  0.000000e+00
9.358000e+08   -2.577807e-02 -1.127851e-02    6.478288e-01 -7.446500e-01    0.000000e+00  0.000000e+00    0.000000e+00  0.000000e+00
9.557000e+08   -2.635985e-02 -1.055950e-02    6.342576e-01 -7.560461e-01    0.000000e+00  0.000000e+00    0.000000e+00  0.000000e+00
9.756000e+08   -2.690585e-02 -9.815372e-03    6.204886e-01 -7.672031e-01    0.000000e+00  0.000000e+00    0.000000e+00  0.000000e+00
9.955000e+08   -2.741510e-02 -9.048005e-03    6.065248e-01 -7.781178e-01    0.000000e+00  0.000000e+00    0.000000e+00  0.000000e+00
1.015400e+09   -2.788676e-02 -8.259313e-03    5.923696e-01 -7.887865e-01    0.000000e+00  0.000000e+00    0.000000e+00  0.000000e+00
1.035300e+09   -2.832007e-02 -7.451235e-03    5.780261e-01 -7.992058e-01    0.000000e+00  0.000000e+00    0.000000e+00  0.000000e+00
1.055200e+09   -2.871436e-02 -6.625724e-03    5.634979e-01 -8.093718e-01    0.000000e+00  0.000000e+00    0.000000e+00  0.000000e+00
1.075100e+09   -2.906909e-02 -5.784748e-03    5.487884e-01 -8.192810e-01    0.000000e+00  0.000000e+00    0.000000e+00  0.000000e+00
1.095000e+09   -2.938380e-02 -4.930282e-03    5.339014e-01 -8.289296e-01    0.000000e+00  0.000000e+00    0.000000e+00  0.000000e+00
1.114900e+09   -2.965811e-02 -4.064306e-03    5.188407e-01 -8.383137e-01    0.000000e+00  0.000000e+00    0.000000e+00  0.000000e+00
1.134800e+09   -2.989177e-02 -3.188796e-03    5.036103e-01 -8.474296e-01    0.000000e+00  0.000000e+00    0.000000e+00  0.000000e+00
1.154700e+09   -3.008461e-02 -2.305727e-03    4.882144e-01 -8.562734e-01    0.000000e+00  0.000000e+00    0.000000e+00  0.000000e+00
1.174600e+09   -3.023655e-02 -1.417060e-03    4.726572e-01 -8.648414e-01    0.000000e+00  0.000000e+00    0.000000e+00  0.000000e+00
1.194500e+09   -3.034762e-02 -5.247428e-04    4.569434e-01 -8.731298e-01    0.000000e+00  0.000000e+00    0.000000e+00  0.000000e+00
1.214400e+09   -3.041791e-02  3.692939e-04    4.410775e-01 -8.811347e-01    0.000000e+00  0.000000e+00    0.000000e+00  0.000000e+00
1.234300e+09   -3.044763e-02  1.263143e-03    4.250646e-01 -8.888526e-01    0.000000e+00  0.000000e+00    0.000000e+00  0.000000e+00
1.254200e+09   -3.043708e-02  2.154925e-03    4.089096e-01 -8.962798e-01    0.000000e+00  0.000000e+00    0.000000e+00  0.000000e+00
1.274100e+09   -3.038661e-02  3.042790e-03    3.926178e-01 -9.034129e-01    0.000000e+00  0.000000e+00    0.000000e+00  0.000000e+00
1.294000e+09   -3.029669e-02  3.924922e-03    3.761947e-01 -9.102482e-01    0.000000e+00  0.000000e+00    0.000000e+00  0.000000e+00
1.313900e+09   -3.016786e-02  4.799544e-03    3.596458e-01 -9.167827e-01    0.000000e+00  0.000000e+00    0.000000e+00  0.000000e+00
1.333800e+09   -3.000073e-02  5.664921e-03    3.429770e-01 -9.230130e-01    0.000000e+00  0.000000e+00    0.000000e+00  0.000000e+00
1.353700e+09   -2.979600e-02  6.519363e-03    3.261942e-01 -9.289362e-01    0.000000e+00  0.000000e+00    0.000000e+00  0.000000e+00
1.373600e+09   -2.955442e-02  7.361226e-03    3.093036e-01 -9.345495e-01    0.000000e+00  0.000000e+00    0.000000e+00  0.000000e+00
1.393500e+09   -2.927682e-02  8.188921e-03    2.923113e-01 -9.398501e-01    0.000000e+00  0.000000e+00    0.000000e+00  0.000000e+00
1.413400e+09   -2.896412e-02  9.000909e-03    2.752237e-01 -9.448356e-01    0.000000e+00  0.000000e+00    0.000000e+00  0.000000e+00
1.433300e+09   -2.861726e-02  9.795711e-03    2.580475e-01 -9.495037e-01    0.000000e+00  0.000000e+00    0.000000e+00  0.000000e+00
1.453200e+09   -2.823727e-02  1.057190e-02    2.407891e-01 -9.538523e-01    0.000000e+00  0.000000e+00    0.000000e+00  0.000000e+00
1.473100e+09   -2.782522e-02  1.132813e-02    2.234553e-01 -9.578797e-01    0.000000e+00  0.000000e+00    0.000000e+00  0.000000e+00
1.493000e+09   -2.738224e-02  1.206309e-02    2.060528e-01 -9.615841e-01    0.000000e+00  0.000000e+00    0.000000e+00  0.000000e+00
1.512900e+09   -2.690950e-02  1.277554e-02    1.885886e-01 -9.649642e-01    0.000000e+00  0.000000e+00    0.000000e+00  0.000000e+00
1.532800e+09   -2.640823e-02  1.346434e-02    1.710695e-01 -9.680188e-01    0.000000e+00  0.000000e+00    0.000000e+00  0.000000e+00
1.552700e+09   -2.587968e-02  1.412837e-02    1.535025e-01 -9.707470e-01    0.000000e+00  0.000000e+00    0.000000e+00  0.000000e+00
1.572600e+09   -2.532514e-02  1.476660e-02    1.358944e-01 -9.731481e-01    0.000000e+00  0.000000e+00    0.000000e+00  0.000000e+00
1.592500e+09   -2.474595e-02  1.537808e-02    1.182522e-01 -9.752216e-01    0.000000e+00  0.000000e+00    0.000000e+00  0.000000e+00
1.612400e+09   -2.414345e-02  1.596190e-02    1.005828e-01 -9.769675e-01    0.000000e+00  0.000000e+00    0.000000e+00  0.000000e+00
1.632300e+09   -2.351904e-02  1.651726e-02    8.289314e-02 -9.783855e-01    0.000000e+00  0.000000e+00    0.000000e+00  0.000000e+00
1.652200e+09   -2.287411e-02  1.704340e-02    6.518997e-02 -9.794761e-01    0.000000e+00  0.000000e+00    0.000000e+00  0.000000e+00
1.672100e+09   -2.221008e-02  1.753962e-02    4.748007e-02 -9.802396e-01    0.000000e+00  0.000000e+00    0.000000e+00  0.000000e+00
1.692000e+09   -2.152839e-02  1.800533e-02    2.977015e-02 -9.806768e-01    0.000000e+00  0.000000e+00    0.000000e+00  0.000000e+00
1.711900e+09   -2.083049e-02  1.843997e-02    1.206679e-02 -9.807884e-01    0.000000e+00  0.000000e+00    0.000000e+00  0.000000e+00
1.731800e+09   -2.011781e-02  1.884308e-02   -5.623489e-03 -9.805755e-01    0.000000e+00  0.000000e+00    0.000000e+00  0.000000e+00
1.751700e+09   -1.939183e-02  1.921423e-02   -2.329431e-02 -9.800393e-01    0.000000e+00  0.000000e+00    0.000000e+00  0.000000e+00
1.771600e+09   -1.865400e-02  1.955309e-02   -4.093939e-02 -9.791813e-01    0.000000e+00  0.000000e+00    0.000000e+00  0.000000e+00
1.791500e+09   -1.790576e-02  1.985937e-02   -5.855259e-02 -9.780029e-01    0.000000e+00  0.000000e+00    0.000000e+00  0.000000e+00
1.811400e+09   -1.714859e-02  2.013286e-02   -7.612787e-02 -9.765059e-01    0.000000e+00  0.000000e+00    0.000000e+00  0.000000e+00
1.831300e+09   -1.638391e-02  2.037341e-02   -9.365936e-02 -9.746920e-01    0.000000e+00  0.000000e+00    0.000000e+00  0.000000e+00
1.851200e+09   -1.561316e-02  2.058092e-02   -1.111413e-01 -9.725632e-01    0.000000e+00  0.000000e+00    0.000000e+00  0.000000e+00
1.871100e+09   -1.483778e-02  2.075536e-02   -1.285681e-01 -9.701215e-01    0.000000e+00  0.000000e+00    0.000000e+00  0.000000e+00
1.891000e+09   -1.405916e-02  2.089674e-02   -1.459343e-01 -9.673690e-01    0.000000e+00  0.000000e+00    0.000000e+00  0.000000e+00
1.910900e+09   -1.327870e-02  2.100515e-02   -1.632345e-01 -9.643079e-01    0.000000e+00  0.000000e+00    0.000000e+00  0.000000e+00
1.930800e+09   -1.249779e-02  2.108072e-02   -1.804636e-01 -9.609404e-01    0.000000e+00  0.000000e+00    0.000000e+00  0.000000e+00
1.950700e+09   -1.171777e-02  2.112363e-02   -1.976165e-01 -9.572689e-01    0.000000e+00  0.000000e+00    0.000000e+00  0.000000e+00
1.970600e+09   -1.094000e-02  2.113411e-02   -2.146883e-01 -9.532956e-01    0.000000e+00  0.000000e+00    0.000000e+00  0.000000e+00
1.990500e+09   -1.016578e-02  2.111245e-02   -2.316741e-01 -9.490229e-01    0.000000e+00  0.000000e+00    0.000000e+00  0.000000e+00
2.010400e+09   -9.396416e-03  2.105898e-02   -2.485692e-01 -9.444532e-01    0.000000e+00  0.000000e+00    0.000000e+00  0.000000e+00
2.030300e+09   -8.633177e-03  2.097407e-02   -2.653692e-01 -9.395889e-01    0.000000e+00  0.000000e+00    0.000000e+00  0.000000e+00
2.050200e+09   -7.877312e-03  2.085814e-02   -2.820694e-01 -9.344325e-01    0.000000e+00  0.000000e+00    0.000000e+00  0.000000e+00
2.070100e+09   -7.130043e-03  2.071166e-02   -2.986656e-01 -9.289862e-01    0.000000e+00  0.000000e+00    0.000000e+00  0.000000e+00
2.090000e+09   -6.392567e-03  2.053514e-02   -3.151533e-01 -9.232525e-01    0.000000e+00  0.000000e+00    0.000000e+00  0.000000e+00
2.109900e+09   -5.666052e-03  2.032910e-02   -3.315284e-01 -9.172337e-01    0.000000e+00  0.000000e+00    0.000000e+00  0.000000e+00
2.129800e+09   -4.951642e-03  2.009415e-02   -3.477866e-01 -9.109323e-01    0.000000e+00  0.000000e+00    0.000000e+00  0.000000e+00
2.149700e+09   -4.250451e-03  1.983089e-02   -3.639239e-01 -9.043504e-01    0.000000e+00  0.000000e+00    0.000000e+00  0.000000e+00
2.169600e+09   -3.563565e-03  1.953999e-02   -3.799363e-01 -8.974906e-01    0.000000e+00  0.000000e+00    0.000000e+00  0.000000e+00
2.189500e+09   -2.892040e-03  1.922215e-02   -3.958196e-01 -8.903550e-01    0.000000e+00  0.000000e+00    0.000000e+00  0.000000e+00
2.209400e+09   -2.236902e-03  1.887808e-02   -4.115698e-01 -8.829459e-01    0.000000e+00  0.000000e+00    0.000000e+00  0.000000e+00
2.229300e+09   -1.599148e-03  1.850855e-02   -4.271830e-01 -8.752657e-01    0.000000e+00  0.000000e+00    0.000000e+00  0.000000e+00
2.249200e+09   -9.797419e-04  1.811436e-02   -4.426552e-01 -8.673165e-01    0.000000e+00  0.000000e+00    0.000000e+00  0.000000e+00
2.269100e+09   -3.796182e-04  1.769633e-02   -4.579823e-01 -8.591007e-01    0.000000e+00  0.000000e+00    0.000000e+00  0.000000e+00
2.289000e+09    2.003229e-04  1.725533e-02   -4.731605e-01 -8.506204e-01    0.000000e+00  0.000000e+00    0.000000e+00  0.000000e+00
2.308900e+09    7.592137e-04  1.679223e-02   -4.881856e-01 -8.418780e-01    0.000000e+00  0.000000e+00    0.000000e+00  0.000000e+00
2.328800e+09    1.296221e-03  1.630797e-02   -5.030538e-01 -8.328757e-01    0.000000e+00  0.000000e+00    0.000000e+00  0.000000e+00
2.348700e+09    1.810545e-03  1.580348e-02   -5.177608e-01 -8.236157e-01    0.000000e+00  0.000000e+00    0.000000e+00  0.000000e+00
2.368600e+09    2.301423e-03  1.527975e-02   -5.323027e-01 -8.141004e-01    0.000000e+00  0.000000e+00    0.000000e+00  0.000000e+00
2.388500e+09    2.768128e-03  1.473778e-02   -5.466754e-01 -8.043322e-01    0.000000e+00  0.000000e+00    0.000000e+00  0.000000e+00
2.408400e+09    3.209971e-03  1.417859e-02   -5.608747e-01 -7.943133e-01    0.000000e+00  0.000000e+00    0.000000e+00  0.000000e+00
2.428300e+09    3.626303e-03  1.360325e-02   -5.748964e-01 -7.840464e-01    0.000000e+00  0.000000e+00    0.000000e+00  0.000000e+00
2.448200e+09    4.016511e-03  1.301284e-02   -5.887363e-01 -7.735337e-01    0.000000e+00  0.000000e+00    0.000000e+00  0.000000e+00
2.468100e+09    4.380026e-03  1.240846e-02   -6.023903e-01 -7.627780e-01    0.000000e+00  0.000000e+00    0.000000e+00  0.000000e+00
2.488000e+09    4.716320e-03  1.179124e-02   -6.158539e-01 -7.517818e-01    0.000000e+00  0.000000e+00    0.000000e+00  0.000000e+00
2.507900e+09    5.024908e-03  1.116233e-02   -6.291229e-01 -7.405478e-01    0.000000e+00  0.000000e+00    0.000000e+00  0.000000e+00
2.527800e+09    5.305349e-03  1.052290e-02   -6.421931e-01 -7.290790e-01    0.000000e+00  0.000000e+00    0.000000e+00  0.000000e+00
2.547700e+09    5.557247e-03  9.874142e-03   -6.550599e-01 -7.173782e-01    0.000000e+00  0.000000e+00    0.000000e+00  0.000000e+00
2.567600e+09    5.780254e-03  9.217258e-03   -6.677191e-01 -7.054484e-01    0.000000e+00  0.000000e+00    0.000000e+00  0.000000e+00
2.587500e+09    5.974068e-03  8.553473e-03   -6.801663e-01 -6.932928e-01    0.000000e+00  0.000000e+00    0.000000e+00  0.000000e+00
2.607400e+09    6.138437e-03  7.884026e-03   -6.923971e-01 -6.809146e-01    0.000000e+00  0.000000e+00    0.000000e+00  0.000000e+00
2.627300e+09    6.273160e-03  7.210167e-03   -7.044071e-01 -6.683174e-01    0.000000e+00  0.000000e+00    0.000000e+00  0.000000e+00
2.647200e+09    6.378085e-03  6.533158e-03   -7.161920e-01 -6.555045e-01    0.000000e+00  0.000000e+00    0.000000e+00  0.000000e+00
2.667100e+09    6.453112e-03  5.854268e-03   -7.277474e-01 -6.424796e-01    0.000000e+00  0.000000e+00    0.000000e+00  0.000000e+00
2.687000e+09    6.498197e-03  5.174776e-03   -7.390689e-01 -6.292467e-01    0.000000e+00  0.000000e+00    0.000000e+00  0.000000e+00
2.706900e+09    6.513345e-03  4.495962e-03   -7.501525e-01 -6.158095e-01    0.000000e+00  0.000000e+00    0.000000e+00  0.000000e+00
2.726800e+09    6.498619e-03  3.819110e-03   -7.609937e-01 -6.021722e-01    0.000000e+00  0.000000e+00    0.000000e+00  0.000000e+00
2.746700e+09    6.454135e-03  3.145506e-03   -7.715884e-01 -5.883390e-01    0.000000e+00  0.000000e+00    0.000000e+00  0.000000e+00
2.766600e+09    6.380067e-03  2.476430e-03   -7.819326e-01 -5.743144e-01    0.000000e+00  0.000000e+00    0.000000e+00  0.000000e+00
2.786500e+09    6.276643e-03  1.813158e-03   -7.920223e-01 -5.601027e-01    0.000000e+00  0.000000e+00    0.000000e+00  0.000000e+00
2.806400e+09    6.144146e-03  1.156960e-03   -8.018534e-01 -5.457087e-01    0.000000e+00  0.000000e+00    0.000000e+00  0.000000e+00
2.826300e+09    5.982918e-03  5.090934e-04   -8.114222e-01 -5.311373e-01    0.000000e+00  0.000000e+00    0.000000e+00  0.000000e+00
2.846200e+09    5.793356e-03 -1.291964e-04   -8.207249e-01 -5.163932e-01    0.000000e+00  0.000000e+00    0.000000e+00  0.000000e+00
2.866100e+09    5.575910e-03 -7.566800e-04   -8.297579e-01 -5.014815e-01    0.000000e+00  0.000000e+00    0.000000e+00  0.000000e+00
2.886000e+09    5.331089e-03 -1.372147e-03   -8.385178e-01 -4.864075e-01    0.000000e+00  0.000000e+00    0.000000e+00  0.000000e+00
2.905900e+09    5.059457e-03 -1.974407e-03   -8.470012e-01 -4.711764e-01    0.000000e+00  0.000000e+00    0.000000e+00  0.000000e+00
