#   Hz   S  RI   R   50
! 
!  Microstrip line with via fence on Aisler 6 layer HD stackup
!  Line length = combLineTabbed6G_2xthru (54.2mm) - SMA_Rosenbergerv2 fixture (28.9mm) = 23.5mm
!  Substrate and Conductor losses
!
!  Paramter List:
!    lossySubstrate = 1, Flag that indicates if substrate losses were enabled
!    lossyCondSheet = 1, Flag that indicates if the zero thickness conducting sheet model was used
!    w50 = 0.65, Width of the 50Ohm line
!    w50gndfree = 1.225, Seperation between RF trace edges to GND planes
!    lineLength = 23.5, Length of the microstrip transmission line
!    portLength = 8,  
!    measPlaneShiftP1 = 8,  
!    measPlaneShiftP2 = 8,  
!    feedShift = 3.74741,  
!    numViasX = 55,  
!    pcbX = 39.5,  
!    pcbY = 25,  
!    stackupL01th = 0,  
!    stackupSub01th = 0.13626,  
!    stackupL02th = 0,  
!    stackupSub02th = 0.2,  
!    stackupL03th = 0,  
!    viaD03 = 0.3,  
!    viaCpD03 = 0.6,  
!    viaClearD03 = 1,  
!    viaPitch = 0.6,  
!
1.000000e+08    3.559508e-03 -3.544868e-03    9.942297e-01 -9.196562e-02    9.942306e-01 -9.196577e-02    3.528507e-03 -3.541176e-03
1.199000e+08    3.350678e-03 -4.226905e-03    9.922677e-01 -1.101716e-01    9.922686e-01 -1.101717e-01    3.319668e-03 -4.222456e-03
1.398000e+08    3.105713e-03 -4.896402e-03    9.899553e-01 -1.283263e-01    9.899561e-01 -1.283265e-01    3.074696e-03 -4.891183e-03
1.597000e+08    2.825424e-03 -5.551409e-03    9.872947e-01 -1.464217e-01    9.872955e-01 -1.464219e-01    2.794402e-03 -5.545408e-03
1.796000e+08    2.510734e-03 -6.190036e-03    9.842885e-01 -1.644499e-01    9.842893e-01 -1.644502e-01    2.479712e-03 -6.183237e-03
1.995000e+08    2.162675e-03 -6.810458e-03    9.809394e-01 -1.824032e-01    9.809402e-01 -1.824034e-01    2.131657e-03 -6.802845e-03
2.194000e+08    1.782378e-03 -7.410923e-03    9.772507e-01 -2.002739e-01    9.772514e-01 -2.002742e-01    1.751373e-03 -7.402477e-03
2.393000e+08    1.371073e-03 -7.989758e-03    9.732256e-01 -2.180550e-01    9.732263e-01 -2.180553e-01    1.340090e-03 -7.980459e-03
2.592000e+08    9.300772e-04 -8.545371e-03    9.688677e-01 -2.357392e-01    9.688684e-01 -2.357395e-01    8.991274e-04 -8.535200e-03
2.791000e+08    4.607933e-04 -9.076262e-03    9.641808e-01 -2.533199e-01    9.641815e-01 -2.533202e-01    4.298906e-04 -9.065199e-03
2.990000e+08   -3.530085e-05 -9.581025e-03    9.591688e-01 -2.707905e-01    9.591695e-01 -2.707908e-01   -6.614028e-05 -9.569047e-03
3.189000e+08   -5.566575e-04 -1.005835e-02    9.538358e-01 -2.881448e-01    9.538364e-01 -2.881451e-01   -5.874153e-04 -1.004543e-02
3.388000e+08   -1.101667e-03 -1.050702e-02    9.481859e-01 -3.053767e-01    9.481865e-01 -3.053770e-01   -1.132322e-03 -1.049315e-02
3.587000e+08   -1.668664e-03 -1.092594e-02    9.422235e-01 -3.224805e-01    9.422241e-01 -3.224808e-01   -1.699193e-03 -1.091109e-02
3.786000e+08   -2.255936e-03 -1.131410e-02    9.359530e-01 -3.394509e-01    9.359535e-01 -3.394511e-01   -2.286313e-03 -1.129824e-02
3.985000e+08   -2.861730e-03 -1.167061e-02    9.293787e-01 -3.562825e-01    9.293792e-01 -3.562828e-01   -2.891926e-03 -1.165373e-02
4.184000e+08   -3.484260e-03 -1.199468e-02    9.225051e-01 -3.729706e-01    9.225056e-01 -3.729708e-01   -3.514244e-03 -1.197675e-02
4.383000e+08   -4.121713e-03 -1.228562e-02    9.153367e-01 -3.895103e-01    9.153372e-01 -3.895105e-01   -4.151451e-03 -1.226662e-02
4.582000e+08   -4.772258e-03 -1.254287e-02    9.078779e-01 -4.058973e-01    9.078785e-01 -4.058975e-01   -4.801713e-03 -1.252278e-02
4.781000e+08   -5.434051e-03 -1.276595e-02    9.001332e-01 -4.221274e-01    9.001337e-01 -4.221275e-01   -5.463183e-03 -1.274476e-02
4.980000e+08   -6.105241e-03 -1.295451e-02    8.921069e-01 -4.381965e-01    8.921074e-01 -4.381966e-01   -6.134010e-03 -1.293220e-02
5.179000e+08   -6.783979e-03 -1.310828e-02    8.838033e-01 -4.541009e-01    8.838038e-01 -4.541010e-01   -6.812340e-03 -1.308484e-02
5.378000e+08   -7.468422e-03 -1.322712e-02    8.752267e-01 -4.698369e-01    8.752272e-01 -4.698370e-01   -7.496329e-03 -1.320253e-02
5.577000e+08   -8.156739e-03 -1.331097e-02    8.663811e-01 -4.854012e-01    8.663816e-01 -4.854013e-01   -8.184142e-03 -1.328521e-02
5.776000e+08   -8.847115e-03 -1.335987e-02    8.572707e-01 -5.007904e-01    8.572713e-01 -5.007904e-01   -8.873965e-03 -1.333295e-02
5.975000e+08   -9.537761e-03 -1.337397e-02    8.478994e-01 -5.160013e-01    8.479000e-01 -5.160013e-01   -9.564003e-03 -1.334586e-02
6.174000e+08   -1.022691e-02 -1.335347e-02    8.382710e-01 -5.310309e-01    8.382716e-01 -5.310309e-01   -1.025249e-02 -1.332419e-02
6.373000e+08   -1.091283e-02 -1.329872e-02    8.283893e-01 -5.458762e-01    8.283899e-01 -5.458762e-01   -1.093769e-02 -1.326826e-02
6.572000e+08   -1.159383e-02 -1.321011e-02    8.182578e-01 -5.605344e-01    8.182584e-01 -5.605343e-01   -1.161792e-02 -1.317847e-02
6.771000e+08   -1.226825e-02 -1.308813e-02    8.078800e-01 -5.750025e-01    8.078807e-01 -5.750024e-01   -1.229150e-02 -1.305531e-02
6.970000e+08   -1.293448e-02 -1.293333e-02    7.972594e-01 -5.892778e-01    7.972602e-01 -5.892778e-01   -1.295683e-02 -1.289935e-02
7.169000e+08   -1.359095e-02 -1.274637e-02    7.863993e-01 -6.033575e-01    7.864000e-01 -6.033575e-01   -1.361234e-02 -1.271123e-02
7.368000e+08   -1.423615e-02 -1.252795e-02    7.753027e-01 -6.172389e-01    7.753035e-01 -6.172388e-01   -1.425651e-02 -1.249167e-02
7.567000e+08   -1.486860e-02 -1.227884e-02    7.639729e-01 -6.309191e-01    7.639737e-01 -6.309190e-01   -1.488787e-02 -1.224145e-02
7.766000e+08   -1.548690e-02 -1.199990e-02    7.524128e-01 -6.443953e-01    7.524137e-01 -6.443952e-01   -1.550502e-02 -1.196141e-02
7.965000e+08   -1.608970e-02 -1.169202e-02    7.406253e-01 -6.576647e-01    7.406263e-01 -6.576646e-01   -1.610660e-02 -1.165246e-02
8.164000e+08   -1.667569e-02 -1.135615e-02    7.286134e-01 -6.707243e-01    7.286144e-01 -6.707243e-01   -1.669131e-02 -1.131555e-02
8.363000e+08   -1.724365e-02 -1.099331e-02    7.163799e-01 -6.835712e-01    7.163809e-01 -6.835712e-01   -1.725792e-02 -1.095171e-02
8.562000e+08   -1.779240e-02 -1.060456e-02    7.039276e-01 -6.962023e-01    7.039286e-01 -6.962024e-01   -1.780526e-02 -1.056199e-02
8.761000e+08   -1.832083e-02 -1.019100e-02    6.912592e-01 -7.086146e-01    6.912604e-01 -7.086147e-01   -1.833222e-02 -1.014751e-02
8.960000e+08   -1.882789e-02 -9.753780e-03    6.783777e-01 -7.208048e-01    6.783788e-01 -7.208049e-01   -1.883775e-02 -9.709404e-03
9.159000e+08   -1.931261e-02 -9.294078e-03    6.652857e-01 -7.327697e-01    6.652869e-01 -7.327698e-01   -1.932087e-02 -9.248875e-03
9.358000e+08   -1.977407e-02 -8.813115e-03    6.519862e-01 -7.445057e-01    6.519874e-01 -7.445059e-01   -1.978067e-02 -8.767139e-03
9.557000e+08   -2.021141e-02 -8.312141e-03    6.384819e-01 -7.560096e-01    6.384832e-01 -7.560099e-01   -2.021630e-02 -8.265451e-03
9.756000e+08   -2.062387e-02 -7.792434e-03    6.247759e-01 -7.672777e-01    6.247772e-01 -7.672780e-01   -2.062698e-02 -7.745092e-03
9.955000e+08   -2.101071e-02 -7.255296e-03    6.108712e-01 -7.783064e-01    6.108725e-01 -7.783068e-01   -2.101200e-02 -7.207369e-03
1.015400e+09   -2.137131e-02 -6.702049e-03    5.967709e-01 -7.890920e-01    5.967723e-01 -7.890925e-01   -2.137072e-02 -6.653607e-03
1.035300e+09   -2.170507e-02 -6.134035e-03    5.824782e-01 -7.996307e-01    5.824796e-01 -7.996312e-01   -2.170256e-02 -6.085153e-03
1.055200e+09   -2.201150e-02 -5.552609e-03    5.679965e-01 -8.099187e-01    5.679979e-01 -8.099192e-01   -2.200701e-02 -5.503364e-03
1.075100e+09   -2.229014e-02 -4.959139e-03    5.533292e-01 -8.199519e-01    5.533306e-01 -8.199526e-01   -2.228364e-02 -4.909612e-03
1.095000e+09   -2.254061e-02 -4.354999e-03    5.384800e-01 -8.297266e-01    5.384815e-01 -8.297273e-01   -2.253207e-02 -4.305275e-03
1.114900e+09   -2.276263e-02 -3.741570e-03    5.234528e-01 -8.392386e-01    5.234542e-01 -8.392394e-01   -2.275199e-02 -3.691736e-03
1.134800e+09   -2.295593e-02 -3.120234e-03    5.082514e-01 -8.484841e-01    5.082528e-01 -8.484849e-01   -2.294318e-02 -3.070382e-03
1.154700e+09   -2.312035e-02 -2.492374e-03    4.928800e-01 -8.574589e-01    4.928814e-01 -8.574598e-01   -2.310545e-02 -2.442597e-03
1.174600e+09   -2.325577e-02 -1.859366e-03    4.773429e-01 -8.661591e-01    4.773443e-01 -8.661601e-01   -2.323871e-02 -1.809761e-03
1.194500e+09   -2.336216e-02 -1.222582e-03    4.616447e-01 -8.745807e-01    4.616460e-01 -8.745819e-01   -2.334291e-02 -1.173246e-03
1.214400e+09   -2.343952e-02 -5.833817e-04    4.457899e-01 -8.827199e-01    4.457913e-01 -8.827211e-01   -2.341808e-02 -5.344177e-04
1.234300e+09   -2.348795e-02  5.688535e-05    4.297837e-01 -8.905727e-01    4.297850e-01 -8.905739e-01   -2.346430e-02  1.053754e-04
1.254200e+09   -2.350758e-02  6.968866e-04    4.136310e-01 -8.981353e-01    4.136323e-01 -8.981366e-01   -2.348172e-02  7.447982e-04
1.274100e+09   -2.349862e-02  1.335307e-03    3.973371e-01 -9.054041e-01    3.973383e-01 -9.054055e-01   -2.347055e-02  1.382535e-03
1.294000e+09   -2.346133e-02  1.970853e-03    3.809074e-01 -9.123754e-01    3.809087e-01 -9.123769e-01   -2.343106e-02  2.017289e-03
1.313900e+09   -2.339603e-02  2.602254e-03    3.643478e-01 -9.190459e-01    3.643489e-01 -9.190474e-01   -2.336357e-02  2.647791e-03
1.333800e+09   -2.330309e-02  3.228265e-03    3.476639e-01 -9.254121e-01    3.476650e-01 -9.254137e-01   -2.326847e-02  3.272794e-03
1.353700e+09   -2.318295e-02  3.847669e-03    3.308619e-01 -9.314710e-01    3.308629e-01 -9.314727e-01   -2.314619e-02  3.891083e-03
1.373600e+09   -2.303609e-02  4.459280e-03    3.139478e-01 -9.372195e-01    3.139487e-01 -9.372213e-01   -2.299721e-02  4.501470e-03
1.393500e+09   -2.286303e-02  5.061946e-03    2.969280e-01 -9.426549e-01    2.969289e-01 -9.426567e-01   -2.282208e-02  5.102803e-03
1.413400e+09   -2.266437e-02  5.654547e-03    2.798089e-01 -9.477745e-01    2.798097e-01 -9.477764e-01   -2.262137e-02  5.693965e-03
1.433300e+09   -2.244071e-02  6.236001e-03    2.625972e-01 -9.525760e-01    2.625979e-01 -9.525779e-01   -2.239573e-02  6.273874e-03
1.453200e+09   -2.219274e-02  6.805266e-03    2.452994e-01 -9.570571e-01    2.453001e-01 -9.570591e-01   -2.214582e-02  6.841489e-03
1.473100e+09   -2.192115e-02  7.361339e-03    2.279225e-01 -9.612160e-01    2.279230e-01 -9.612180e-01   -2.187236e-02  7.395808e-03
1.493000e+09   -2.162671e-02  7.903256e-03    2.104732e-01 -9.650509e-01    2.104737e-01 -9.650529e-01   -2.157610e-02  7.935872e-03
1.512900e+09   -2.131019e-02  8.430101e-03    1.929585e-01 -9.685602e-01    1.929589e-01 -9.685623e-01   -2.125785e-02  8.460765e-03
1.532800e+09   -2.097242e-02  8.940999e-03    1.753853e-01 -9.717429e-01    1.753856e-01 -9.717450e-01   -2.091841e-02  8.969615e-03
1.552700e+09   -2.061424e-02  9.435120e-03    1.577607e-01 -9.745979e-01    1.577609e-01 -9.746000e-01   -2.055864e-02  9.461597e-03
1.572600e+09   -2.023654e-02  9.911683e-03    1.400917e-01 -9.771243e-01    1.400918e-01 -9.771265e-01   -2.017944e-02  9.935930e-03
1.592500e+09   -1.984021e-02  1.036995e-02    1.223852e-01 -9.793218e-01    1.223852e-01 -9.793240e-01   -1.978170e-02  1.039188e-02
1.612400e+09   -1.942619e-02  1.080923e-02    1.046483e-01 -9.811901e-01    1.046482e-01 -9.811922e-01   -1.936637e-02  1.082877e-02
1.632300e+09   -1.899542e-02  1.122889e-02    8.688792e-02 -9.827290e-01    8.688775e-02 -9.827311e-01   -1.893439e-02  1.124595e-02
1.652200e+09   -1.854887e-02  1.162833e-02    6.911093e-02 -9.839388e-01    6.911067e-02 -9.839409e-01   -1.848674e-02  1.164284e-02
1.672100e+09   -1.808753e-02  1.200700e-02    5.132419e-02 -9.848199e-01    5.132384e-02 -9.848220e-01   -1.802441e-02  1.201891e-02
1.692000e+09   -1.761239e-02  1.236442e-02    3.353444e-02 -9.853729e-01    3.353400e-02 -9.853750e-01   -1.754839e-02  1.237365e-02
1.711900e+09   -1.712446e-02  1.270013e-02    1.574835e-02 -9.855987e-01    1.574783e-02 -9.856007e-01   -1.705970e-02  1.270662e-02
1.731800e+09   -1.662476e-02  1.301372e-02   -2.027519e-03 -9.854981e-01   -2.028123e-03 -9.855001e-01   -1.655935e-02  1.301743e-02
1.751700e+09   -1.611430e-02  1.330485e-02   -1.978671e-02 -9.850726e-01   -1.978740e-02 -9.850745e-01   -1.604838e-02  1.330572e-02
1.771600e+09   -1.559412e-02  1.357321e-02   -3.752291e-02 -9.843233e-01   -3.752367e-02 -9.843252e-01   -1.552781e-02  1.357120e-02
1.791500e+09   -1.506525e-02  1.381853e-02   -5.522991e-02 -9.832518e-01   -5.523074e-02 -9.832536e-01   -1.499867e-02  1.381362e-02
1.811400e+09   -1.452870e-02  1.404059e-02   -7.290164e-02 -9.818597e-01   -7.290255e-02 -9.818615e-01   -1.446200e-02  1.403275e-02
1.831300e+09   -1.398553e-02  1.423924e-02   -9.053219e-02 -9.801489e-01   -9.053315e-02 -9.801507e-01   -1.391883e-02  1.422843e-02
1.851200e+09   -1.343673e-02  1.441432e-02   -1.081157e-01 -9.781213e-01   -1.081168e-01 -9.781230e-01   -1.337018e-02  1.440054e-02
1.871100e+09   -1.288335e-02  1.456576e-02   -1.256467e-01 -9.757787e-01   -1.256478e-01 -9.757804e-01   -1.281708e-02  1.454899e-02
1.891000e+09   -1.232639e-02  1.469351e-02   -1.431195e-01 -9.731234e-01   -1.431206e-01 -9.731250e-01   -1.226053e-02  1.467376e-02
1.910900e+09   -1.176685e-02  1.479757e-02   -1.605288e-01 -9.701574e-01   -1.605300e-01 -9.701590e-01   -1.170155e-02  1.477483e-02
1.930800e+09   -1.120574e-02  1.487797e-02   -1.778694e-01 -9.668831e-01   -1.778707e-01 -9.668845e-01   -1.114114e-02  1.485226e-02
1.950700e+09   -1.064403e-02  1.493478e-02   -1.951363e-01 -9.633025e-01   -1.951375e-01 -9.633040e-01   -1.058027e-02  1.490611e-02
1.970600e+09   -1.008271e-02  1.496811e-02   -2.123244e-01 -9.594182e-01   -2.123257e-01 -9.594195e-01   -1.001992e-02  1.493651e-02
1.990500e+09   -9.522736e-03  1.497811e-02   -2.294288e-01 -9.552323e-01   -2.294302e-01 -9.552336e-01   -9.461061e-03  1.494361e-02
2.010400e+09   -8.965057e-03  1.496496e-02   -2.464451e-01 -9.507472e-01   -2.464464e-01 -9.507484e-01   -8.904634e-03  1.492759e-02
2.030300e+09   -8.410607e-03  1.492887e-02   -2.633684e-01 -9.459653e-01   -2.633698e-01 -9.459665e-01   -8.351573e-03  1.488869e-02
2.050200e+09   -7.860308e-03  1.487009e-02   -2.801943e-01 -9.408890e-01   -2.801957e-01 -9.408900e-01   -7.802797e-03  1.482714e-02
2.070100e+09   -7.315061e-03  1.478891e-02   -2.969184e-01 -9.355205e-01   -2.969198e-01 -9.355215e-01   -7.259206e-03  1.474325e-02
2.090000e+09   -6.775755e-03  1.468563e-02   -3.135363e-01 -9.298622e-01   -3.135378e-01 -9.298632e-01   -6.721687e-03  1.463733e-02
2.109900e+09   -6.243259e-03  1.456061e-02   -3.300439e-01 -9.239165e-01   -3.300454e-01 -9.239174e-01   -6.191106e-03  1.450973e-02
2.129800e+09   -5.718427e-03  1.441420e-02   -3.464369e-01 -9.176857e-01   -3.464384e-01 -9.176865e-01   -5.668314e-03  1.436082e-02
2.149700e+09   -5.202091e-03  1.424682e-02   -3.627112e-01 -9.111719e-01   -3.627127e-01 -9.111727e-01   -5.154141e-03  1.419102e-02
2.169600e+09   -4.695069e-03  1.405889e-02   -3.788627e-01 -9.043776e-01   -3.788641e-01 -9.043783e-01   -4.649399e-03  1.400077e-02
2.189500e+09   -4.198154e-03  1.385088e-02   -3.948873e-01 -8.973048e-01   -3.948887e-01 -8.973055e-01   -4.154881e-03  1.379052e-02
2.209400e+09   -3.712125e-03  1.362326e-02   -4.107810e-01 -8.899560e-01   -4.107825e-01 -8.899566e-01   -3.671358e-03  1.356077e-02
2.229300e+09   -3.237735e-03  1.337656e-02   -4.265398e-01 -8.823331e-01   -4.265412e-01 -8.823337e-01   -3.199582e-03  1.331204e-02
2.249200e+09   -2.775721e-03  1.311129e-02   -4.421597e-01 -8.744385e-01   -4.421611e-01 -8.744390e-01   -2.740283e-03  1.304486e-02
2.269100e+09   -2.326793e-03  1.282804e-02   -4.576365e-01 -8.662743e-01   -4.576380e-01 -8.662748e-01   -2.294168e-03  1.275980e-02
2.289000e+09   -1.891644e-03  1.252738e-02   -4.729665e-01 -8.578428e-01   -4.729679e-01 -8.578432e-01   -1.861924e-03  1.245746e-02
2.308900e+09   -1.470941e-03  1.220992e-02   -4.881453e-01 -8.491459e-01   -4.881467e-01 -8.491463e-01   -1.444213e-03  1.213845e-02
2.328800e+09   -1.065328e-03  1.187630e-02   -5.031691e-01 -8.401861e-01   -5.031705e-01 -8.401864e-01   -1.041673e-03  1.180341e-02
2.348700e+09   -6.754262e-04  1.152718e-02   -5.180337e-01 -8.309654e-01   -5.180351e-01 -8.309657e-01   -6.549194e-04  1.145300e-02
2.368600e+09   -3.018299e-04  1.116324e-02   -5.327350e-01 -8.214861e-01   -5.327364e-01 -8.214864e-01   -2.845412e-04  1.108791e-02
2.388500e+09    5.489097e-05  1.078517e-02   -5.472688e-01 -8.117505e-01   -5.472701e-01 -8.117507e-01    6.889819e-05  1.070883e-02
2.408400e+09    3.941932e-04  1.039371e-02   -5.616309e-01 -8.017609e-01   -5.616322e-01 -8.017611e-01    4.048619e-04  1.031650e-02
2.428300e+09    7.155609e-04  9.989592e-03   -5.758171e-01 -7.915196e-01   -5.758184e-01 -7.915197e-01    7.228406e-04  9.911671e-03
2.448200e+09    1.018506e-03  9.573584e-03   -5.898231e-01 -7.810290e-01   -5.898243e-01 -7.810291e-01    1.022353e-03  9.495099e-03
2.468100e+09    1.302570e-03  9.146468e-03   -6.036445e-01 -7.702917e-01   -6.036458e-01 -7.702918e-01    1.302948e-03  9.067572e-03
2.488000e+09    1.567324e-03  8.709047e-03   -6.172771e-01 -7.593102e-01   -6.172783e-01 -7.593103e-01    1.564202e-03  8.629896e-03
2.507900e+09    1.812370e-03  8.262140e-03   -6.307164e-01 -7.480872e-01   -6.307176e-01 -7.480872e-01    1.805725e-03  8.182892e-03
2.527800e+09    2.037341e-03  7.806583e-03   -6.439580e-01 -7.366254e-01   -6.439592e-01 -7.366254e-01    2.027158e-03  7.727397e-03
2.547700e+09    2.241904e-03  7.343228e-03   -6.569975e-01 -7.249277e-01   -6.569986e-01 -7.249276e-01    2.228173e-03  7.264266e-03
2.567600e+09    2.425757e-03  6.872943e-03   -6.698303e-01 -7.129970e-01   -6.698315e-01 -7.129969e-01    2.408479e-03  6.794364e-03
2.587500e+09    2.588636e-03  6.396608e-03   -6.824521e-01 -7.008364e-01   -6.824532e-01 -7.008363e-01    2.567817e-03  6.318575e-03
2.607400e+09    2.730309e-03  5.915116e-03   -6.948583e-01 -6.884492e-01   -6.948594e-01 -6.884491e-01    2.705963e-03  5.837792e-03
2.627300e+09    2.850584e-03  5.429371e-03   -7.070445e-01 -6.758387e-01   -7.070456e-01 -6.758386e-01    2.822732e-03  5.352917e-03
2.647200e+09    2.949301e-03  4.940289e-03   -7.190062e-01 -6.630084e-01   -7.190072e-01 -6.630083e-01    2.917972e-03  4.864867e-03
2.667100e+09    3.026342e-03  4.448791e-03   -7.307388e-01 -6.499619e-01   -7.307399e-01 -6.499617e-01    2.991573e-03  4.374561e-03
2.687000e+09    3.081626e-03  3.955808e-03   -7.422381e-01 -6.367029e-01   -7.422391e-01 -6.367027e-01    3.043461e-03  3.882929e-03
2.706900e+09    3.115111e-03  3.462274e-03   -7.534995e-01 -6.232354e-01   -7.535005e-01 -6.232353e-01    3.073602e-03  3.390905e-03
2.726800e+09    3.126795e-03  2.969129e-03   -7.645188e-01 -6.095635e-01   -7.645198e-01 -6.095633e-01    3.082000e-03  2.899424e-03
2.746700e+09    3.116716e-03  2.477311e-03   -7.752916e-01 -5.956913e-01   -7.752926e-01 -5.956911e-01    3.068703e-03  2.409425e-03
2.766600e+09    3.084954e-03  1.987763e-03   -7.858138e-01 -5.816233e-01   -7.858147e-01 -5.816230e-01    3.033795e-03  1.921847e-03
2.786500e+09    3.031628e-03  1.501423e-03   -7.960812e-01 -5.673638e-01   -7.960821e-01 -5.673636e-01    2.977405e-03  1.437624e-03
2.806400e+09    2.956900e-03  1.019227e-03   -8.060897e-01 -5.529176e-01   -8.060906e-01 -5.529174e-01    2.899700e-03  9.576894e-04
2.826300e+09    2.860971e-03  5.421038e-04   -8.158354e-01 -5.382895e-01   -8.158363e-01 -5.382892e-01    2.800890e-03  4.829685e-04
2.846200e+09    2.744088e-03  7.097566e-05   -8.253144e-01 -5.234843e-01   -8.253153e-01 -5.234841e-01    2.681226e-03  1.437956e-05
2.866100e+09    2.606533e-03 -3.932448e-04   -8.345231e-01 -5.085073e-01   -8.345239e-01 -5.085070e-01    2.541000e-03 -4.471694e-04
2.886000e+09    2.448635e-03 -8.496567e-04   -8.434577e-01 -4.933634e-01   -8.434585e-01 -4.933631e-01    2.380544e-03 -9.007821e-04
2.905900e+09    2.270760e-03 -1.297373e-03   -8.521148e-01 -4.780581e-01   -8.521156e-01 -4.780578e-01    2.200232e-03 -1.345577e-03
