#   Hz   S  RI   R   50
! 
!  Microstrip line with via fence on Aisler 6 layer HD stackup
!  Line length = combLineTabbed6G_2xthru (54.2mm) - SMA_Rosenbergerv2 fixture (28.9mm) = 23.5mm
!  Conductor losses only
!
!  Paramter List:
!    lossySubstrate = 0, Flag that indicates if substrate losses were enabled
!    lossyCondSheet = 1, Flag that indicates if the zero thickness conducting sheet model was used
!    w50 = 0.65, Width of the 50Ohm line
!    w50gndfree = 1.225, Seperation between RF trace edges to GND planes
!    lineLength = 23.5, Length of the microstrip transmission line
!    portLength = 8,  
!    measPlaneShiftP1 = 8,  
!    measPlaneShiftP2 = 8,  
!    feedShift = 3.74741,  
!    numViasX = 55,  
!    pcbX = 39.5,  
!    pcbY = 25,  
!    stackupL01th = 0,  
!    stackupSub01th = 0.13626,  
!    stackupL02th = 0,  
!    stackupSub02th = 0.2,  
!    stackupL03th = 0,  
!    viaD03 = 0.3,  
!    viaCpD03 = 0.6,  
!    viaClearD03 = 1,  
!    viaPitch = 0.6,  
!
1.000000e+08   -2.863104e-03 -4.908861e-04    9.954994e-01 -9.099314e-02    9.954999e-01 -9.099351e-02   -2.893646e-03 -4.874707e-04
1.199000e+08   -2.878818e-03 -5.876996e-04    9.936007e-01 -1.090095e-01    9.936012e-01 -1.090099e-01   -2.909399e-03 -5.835773e-04
1.398000e+08   -2.897359e-03 -6.840386e-04    9.913632e-01 -1.269769e-01    9.913637e-01 -1.269774e-01   -2.927982e-03 -6.791947e-04
1.597000e+08   -2.918718e-03 -7.798236e-04    9.887893e-01 -1.448878e-01    9.887897e-01 -1.448883e-01   -2.949386e-03 -7.742417e-04
1.796000e+08   -2.942884e-03 -8.749751e-04    9.858815e-01 -1.627345e-01    9.858818e-01 -1.627351e-01   -2.973598e-03 -8.686365e-04
1.995000e+08   -2.969847e-03 -9.694133e-04    9.826428e-01 -1.805101e-01    9.826431e-01 -1.805107e-01   -3.000604e-03 -9.622976e-04
2.194000e+08   -2.999593e-03 -1.063058e-03    9.790763e-01 -1.982074e-01    9.790765e-01 -1.982081e-01   -3.030391e-03 -1.055143e-03
2.393000e+08   -3.032108e-03 -1.155828e-03    9.751854e-01 -2.158199e-01    9.751855e-01 -2.158206e-01   -3.062940e-03 -1.147091e-03
2.592000e+08   -3.067374e-03 -1.247643e-03    9.709736e-01 -2.333411e-01    9.709737e-01 -2.333418e-01   -3.098233e-03 -1.238058e-03
2.791000e+08   -3.105375e-03 -1.338421e-03    9.664448e-01 -2.507649e-01    9.664447e-01 -2.507656e-01   -3.136249e-03 -1.327964e-03
2.990000e+08   -3.146090e-03 -1.428081e-03    9.616026e-01 -2.680854e-01    9.616024e-01 -2.680861e-01   -3.176967e-03 -1.416724e-03
3.189000e+08   -3.189498e-03 -1.516540e-03    9.564511e-01 -2.852972e-01    9.564509e-01 -2.852978e-01   -3.220361e-03 -1.504255e-03
3.388000e+08   -3.235577e-03 -1.603715e-03    9.509943e-01 -3.023949e-01    9.509940e-01 -3.023955e-01   -3.266406e-03 -1.590475e-03
3.587000e+08   -3.284299e-03 -1.689523e-03    9.452362e-01 -3.193736e-01    9.452358e-01 -3.193742e-01   -3.315073e-03 -1.675300e-03
3.786000e+08   -3.335639e-03 -1.773879e-03    9.391810e-01 -3.362287e-01    9.391805e-01 -3.362293e-01   -3.366333e-03 -1.758645e-03
3.985000e+08   -3.389566e-03 -1.856700e-03    9.328326e-01 -3.529558e-01    9.328321e-01 -3.529563e-01   -3.420151e-03 -1.840427e-03
4.184000e+08   -3.446048e-03 -1.937899e-03    9.261952e-01 -3.695507e-01    9.261946e-01 -3.695511e-01   -3.476494e-03 -1.920561e-03
4.383000e+08   -3.505051e-03 -2.017392e-03    9.192726e-01 -3.860094e-01    9.192720e-01 -3.860098e-01   -3.535324e-03 -1.998962e-03
4.582000e+08   -3.566539e-03 -2.095092e-03    9.120687e-01 -4.023284e-01    9.120681e-01 -4.023287e-01   -3.596601e-03 -2.075545e-03
4.781000e+08   -3.630471e-03 -2.170913e-03    9.045874e-01 -4.185041e-01    9.045867e-01 -4.185044e-01   -3.660282e-03 -2.150224e-03
4.980000e+08   -3.696804e-03 -2.244767e-03    8.968322e-01 -4.345333e-01    8.968314e-01 -4.345335e-01   -3.726322e-03 -2.222915e-03
5.179000e+08   -3.765495e-03 -2.316568e-03    8.888067e-01 -4.504128e-01    8.888059e-01 -4.504129e-01   -3.794672e-03 -2.293531e-03
5.378000e+08   -3.836493e-03 -2.386227e-03    8.805142e-01 -4.661396e-01    8.805134e-01 -4.661396e-01   -3.865281e-03 -2.361987e-03
5.577000e+08   -3.909746e-03 -2.453657e-03    8.719580e-01 -4.817108e-01    8.719572e-01 -4.817107e-01   -3.938095e-03 -2.428197e-03
5.776000e+08   -3.985200e-03 -2.518768e-03    8.631412e-01 -4.971237e-01    8.631403e-01 -4.971235e-01   -4.013054e-03 -2.492075e-03
5.975000e+08   -4.062795e-03 -2.581475e-03    8.540666e-01 -5.123754e-01    8.540658e-01 -5.123751e-01   -4.090098e-03 -2.553536e-03
6.174000e+08   -4.142468e-03 -2.641688e-03    8.447370e-01 -5.274632e-01    8.447362e-01 -5.274628e-01   -4.169162e-03 -2.612495e-03
6.373000e+08   -4.224152e-03 -2.699320e-03    8.351551e-01 -5.423845e-01    8.351544e-01 -5.423840e-01   -4.250175e-03 -2.668867e-03
6.572000e+08   -4.307776e-03 -2.754285e-03    8.253233e-01 -5.571366e-01    8.253226e-01 -5.571360e-01   -4.333066e-03 -2.722570e-03
6.771000e+08   -4.393264e-03 -2.806495e-03    8.152439e-01 -5.717166e-01    8.152432e-01 -5.717159e-01   -4.417757e-03 -2.773519e-03
6.970000e+08   -4.480538e-03 -2.855867e-03    8.049191e-01 -5.861218e-01    8.049185e-01 -5.861211e-01   -4.504167e-03 -2.821634e-03
7.169000e+08   -4.569513e-03 -2.902314e-03    7.943511e-01 -6.003493e-01    7.943505e-01 -6.003485e-01   -4.592210e-03 -2.866833e-03
7.368000e+08   -4.660099e-03 -2.945756e-03    7.835417e-01 -6.143961e-01    7.835412e-01 -6.143953e-01   -4.681796e-03 -2.909039e-03
7.567000e+08   -4.752204e-03 -2.986111e-03    7.724930e-01 -6.282592e-01    7.724926e-01 -6.282583e-01   -4.772830e-03 -2.948173e-03
7.766000e+08   -4.845728e-03 -3.023301e-03    7.612067e-01 -6.419353e-01    7.612064e-01 -6.419343e-01   -4.865215e-03 -2.984163e-03
7.965000e+08   -4.940569e-03 -3.057248e-03    7.496847e-01 -6.554210e-01    7.496845e-01 -6.554200e-01   -4.958844e-03 -3.016934e-03
8.164000e+08   -5.036619e-03 -3.087879e-03    7.379288e-01 -6.687129e-01    7.379287e-01 -6.687118e-01   -5.053611e-03 -3.046418e-03
8.363000e+08   -5.133763e-03 -3.115123e-03    7.259408e-01 -6.818074e-01    7.259407e-01 -6.818063e-01   -5.149403e-03 -3.072548e-03
8.562000e+08   -5.231885e-03 -3.138914e-03    7.137224e-01 -6.947005e-01    7.137225e-01 -6.946994e-01   -5.246100e-03 -3.095262e-03
8.761000e+08   -5.330860e-03 -3.159187e-03    7.012756e-01 -7.073885e-01    7.012758e-01 -7.073873e-01   -5.343582e-03 -3.114500e-03
8.960000e+08   -5.430562e-03 -3.175884e-03    6.886024e-01 -7.198670e-01    6.886026e-01 -7.198659e-01   -5.441720e-03 -3.130208e-03
9.159000e+08   -5.530858e-03 -3.188949e-03    6.757046e-01 -7.321320e-01    6.757050e-01 -7.321308e-01   -5.540385e-03 -3.142335e-03
9.358000e+08   -5.631611e-03 -3.198333e-03    6.625846e-01 -7.441789e-01    6.625851e-01 -7.441777e-01   -5.639440e-03 -3.150837e-03
9.557000e+08   -5.732679e-03 -3.203991e-03    6.492446e-01 -7.560031e-01    6.492452e-01 -7.560020e-01   -5.738745e-03 -3.155672e-03
9.756000e+08   -5.833918e-03 -3.205886e-03    6.356871e-01 -7.676001e-01    6.356878e-01 -7.675990e-01   -5.838158e-03 -3.156808e-03
9.955000e+08   -5.935177e-03 -3.203983e-03    6.219147e-01 -7.789650e-01    6.219155e-01 -7.789639e-01   -5.937530e-03 -3.154215e-03
1.015400e+09   -6.036303e-03 -3.198258e-03    6.079303e-01 -7.900928e-01    6.079312e-01 -7.900918e-01   -6.036712e-03 -3.147872e-03
1.035300e+09   -6.137140e-03 -3.188691e-03    5.937369e-01 -8.009786e-01    5.937379e-01 -8.009777e-01   -6.135550e-03 -3.137765e-03
1.055200e+09   -6.237529e-03 -3.175270e-03    5.793379e-01 -8.116173e-01    5.793390e-01 -8.116165e-01   -6.233887e-03 -3.123885e-03
1.075100e+09   -6.337307e-03 -3.157992e-03    5.647368e-01 -8.220039e-01    5.647379e-01 -8.220031e-01   -6.331566e-03 -3.106231e-03
1.095000e+09   -6.436311e-03 -3.136859e-03    5.499373e-01 -8.321332e-01    5.499385e-01 -8.321325e-01   -6.428425e-03 -3.084812e-03
1.114900e+09   -6.534375e-03 -3.111882e-03    5.349436e-01 -8.420000e-01    5.349449e-01 -8.419994e-01   -6.524303e-03 -3.059641e-03
1.134800e+09   -6.631331e-03 -3.083083e-03    5.197599e-01 -8.515993e-01    5.197613e-01 -8.515988e-01   -6.619037e-03 -3.030744e-03
1.154700e+09   -6.727013e-03 -3.050490e-03    5.043910e-01 -8.609261e-01    5.043924e-01 -8.609257e-01   -6.712464e-03 -2.998150e-03
1.174600e+09   -6.821251e-03 -3.014138e-03    4.888416e-01 -8.699753e-01    4.888430e-01 -8.699750e-01   -6.804420e-03 -2.961901e-03
1.194500e+09   -6.913879e-03 -2.974076e-03    4.731169e-01 -8.787421e-01    4.731184e-01 -8.787419e-01   -6.894743e-03 -2.922045e-03
1.214400e+09   -7.004730e-03 -2.930357e-03    4.572224e-01 -8.872218e-01    4.572238e-01 -8.872217e-01   -6.983272e-03 -2.878639e-03
1.234300e+09   -7.093638e-03 -2.883045e-03    4.411636e-01 -8.954097e-01    4.411651e-01 -8.954097e-01   -7.069846e-03 -2.831749e-03
1.254200e+09   -7.180442e-03 -2.832213e-03    4.249466e-01 -9.033014e-01    4.249481e-01 -9.033015e-01   -7.154308e-03 -2.781450e-03
1.274100e+09   -7.264981e-03 -2.777943e-03    4.085775e-01 -9.108926e-01    4.085790e-01 -9.108929e-01   -7.236505e-03 -2.727825e-03
1.294000e+09   -7.347097e-03 -2.720324e-03    3.920627e-01 -9.181794e-01    3.920642e-01 -9.181798e-01   -7.316283e-03 -2.670965e-03
1.313900e+09   -7.426638e-03 -2.659456e-03    3.754088e-01 -9.251580e-01    3.754103e-01 -9.251585e-01   -7.393497e-03 -2.610971e-03
1.333800e+09   -7.503456e-03 -2.595445e-03    3.586226e-01 -9.318248e-01    3.586240e-01 -9.318254e-01   -7.468004e-03 -2.547949e-03
1.353700e+09   -7.577407e-03 -2.528408e-03    3.417111e-01 -9.381766e-01    3.417124e-01 -9.381772e-01   -7.539666e-03 -2.482016e-03
1.373600e+09   -7.648352e-03 -2.458467e-03    3.246812e-01 -9.442103e-01    3.246825e-01 -9.442110e-01   -7.608352e-03 -2.413295e-03
1.393500e+09   -7.716160e-03 -2.385752e-03    3.075403e-01 -9.499233e-01    3.075416e-01 -9.499241e-01   -7.673935e-03 -2.341916e-03
1.413400e+09   -7.780705e-03 -2.310402e-03    2.902957e-01 -9.553131e-01    2.902969e-01 -9.553140e-01   -7.736296e-03 -2.268015e-03
1.433300e+09   -7.841869e-03 -2.232561e-03    2.729548e-01 -9.603777e-01    2.729559e-01 -9.603787e-01   -7.795323e-03 -2.191737e-03
1.453200e+09   -7.899540e-03 -2.152378e-03    2.555250e-01 -9.651153e-01    2.555260e-01 -9.651164e-01   -7.850911e-03 -2.113229e-03
1.473100e+09   -7.953616e-03 -2.070011e-03    2.380138e-01 -9.695244e-01    2.380147e-01 -9.695255e-01   -7.902962e-03 -2.032646e-03
1.493000e+09   -8.004001e-03 -1.985620e-03    2.204286e-01 -9.736038e-01    2.204295e-01 -9.736050e-01   -7.951388e-03 -1.950148e-03
1.512900e+09   -8.050607e-03 -1.899373e-03    2.027770e-01 -9.773527e-01    2.027778e-01 -9.773539e-01   -7.996106e-03 -1.865899e-03
1.532800e+09   -8.093358e-03 -1.811438e-03    1.850664e-01 -9.807704e-01    1.850671e-01 -9.807717e-01   -8.037045e-03 -1.780065e-03
1.552700e+09   -8.132182e-03 -1.721991e-03    1.673040e-01 -9.838567e-01    1.673046e-01 -9.838580e-01   -8.074141e-03 -1.692818e-03
1.572600e+09   -8.167019e-03 -1.631208e-03    1.494971e-01 -9.866115e-01    1.494976e-01 -9.866128e-01   -8.107338e-03 -1.604331e-03
1.592500e+09   -8.197819e-03 -1.539268e-03    1.316529e-01 -9.890351e-01    1.316533e-01 -9.890365e-01   -8.136590e-03 -1.514779e-03
1.612400e+09   -8.224537e-03 -1.446353e-03    1.137784e-01 -9.911280e-01    1.137787e-01 -9.911293e-01   -8.161860e-03 -1.424341e-03
1.632300e+09   -8.247142e-03 -1.352645e-03    9.588047e-02 -9.928908e-01    9.588068e-02 -9.928922e-01   -8.183120e-03 -1.333194e-03
1.652200e+09   -8.265609e-03 -1.258329e-03    7.796580e-02 -9.943245e-01    7.796592e-02 -9.943259e-01   -8.200350e-03 -1.241518e-03
1.672100e+09   -8.279922e-03 -1.163588e-03    6.004097e-02 -9.954302e-01    6.004100e-02 -9.954316e-01   -8.213539e-03 -1.149491e-03
1.692000e+09   -8.290075e-03 -1.068605e-03    4.211236e-02 -9.962092e-01    4.211230e-02 -9.962105e-01   -8.222686e-03 -1.057293e-03
1.711900e+09   -8.296071e-03 -9.735641e-04    2.418617e-02 -9.966628e-01    2.418603e-02 -9.966641e-01   -8.227796e-03 -9.650996e-04
1.731800e+09   -8.297922e-03 -8.786467e-04    6.268415e-03 -9.967927e-01    6.268194e-03 -9.967940e-01   -8.228886e-03 -8.730887e-04
1.751700e+09   -8.295647e-03 -7.840330e-04   -1.163507e-02 -9.966005e-01   -1.163537e-02 -9.966017e-01   -8.225977e-03 -7.814344e-04
1.771600e+09   -8.289273e-03 -6.899013e-04   -2.951866e-02 -9.960879e-01   -2.951902e-02 -9.960891e-01   -8.219103e-03 -6.903090e-04
1.791500e+09   -8.278838e-03 -5.964274e-04   -4.737688e-02 -9.952568e-01   -4.737730e-02 -9.952579e-01   -8.208300e-03 -5.998821e-04
1.811400e+09   -8.264384e-03 -5.037843e-04   -6.520445e-02 -9.941090e-01   -6.520493e-02 -9.941101e-01   -8.193616e-03 -5.103207e-04
1.831300e+09   -8.245963e-03 -4.121420e-04   -8.299628e-02 -9.926465e-01   -8.299681e-02 -9.926475e-01   -8.175105e-03 -4.217882e-04
1.851200e+09   -8.223634e-03 -3.216670e-04   -1.007474e-01 -9.908710e-01   -1.007480e-01 -9.908719e-01   -8.152826e-03 -3.344447e-04
1.871100e+09   -8.197462e-03 -2.325221e-04   -1.184531e-01 -9.887846e-01   -1.184537e-01 -9.887854e-01   -8.126848e-03 -2.484465e-04
1.891000e+09   -8.167520e-03 -1.448664e-04   -1.361087e-01 -9.863890e-01   -1.361093e-01 -9.863898e-01   -8.097244e-03 -1.639459e-04
1.910900e+09   -8.133886e-03 -5.885446e-05   -1.537096e-01 -9.836862e-01   -1.537103e-01 -9.836870e-01   -8.064092e-03 -8.109069e-05
1.930800e+09   -8.096644e-03  2.536319e-05   -1.712515e-01 -9.806780e-01   -1.712522e-01 -9.806787e-01   -8.027480e-03 -2.457039e-08
1.950700e+09   -8.055886e-03  1.076407e-04   -1.887301e-01 -9.773661e-01   -1.887308e-01 -9.773667e-01   -7.987498e-03  7.911350e-05
1.970600e+09   -8.011708e-03  1.878370e-04   -2.061411e-01 -9.737522e-01   -2.061418e-01 -9.737527e-01   -7.944243e-03  1.561893e-04
1.990500e+09   -7.964211e-03  2.658156e-04   -2.234805e-01 -9.698380e-01   -2.234812e-01 -9.698385e-01   -7.897814e-03  2.310734e-04
2.010400e+09   -7.913502e-03  3.414453e-04   -2.407441e-01 -9.656250e-01   -2.407448e-01 -9.656254e-01   -7.848320e-03  3.036415e-04
2.030300e+09   -7.859692e-03  4.145997e-04   -2.579279e-01 -9.611148e-01   -2.579286e-01 -9.611151e-01   -7.795869e-03  3.737741e-04
2.050200e+09   -7.802896e-03  4.851578e-04   -2.750279e-01 -9.563087e-01   -2.750285e-01 -9.563090e-01   -7.740577e-03  4.413572e-04
2.070100e+09   -7.743236e-03  5.530038e-04   -2.920400e-01 -9.512082e-01   -2.920406e-01 -9.512085e-01   -7.682562e-03  5.062818e-04
2.090000e+09   -7.680835e-03  6.180271e-04   -3.089601e-01 -9.458146e-01   -3.089607e-01 -9.458148e-01   -7.621947e-03  5.684442e-04
2.109900e+09   -7.615822e-03  6.801226e-04   -3.257842e-01 -9.401292e-01   -3.257848e-01 -9.401293e-01   -7.558857e-03  6.277461e-04
2.129800e+09   -7.548328e-03  7.391908e-04   -3.425083e-01 -9.341531e-01   -3.425089e-01 -9.341532e-01   -7.493423e-03  6.840946e-04
2.149700e+09   -7.478488e-03  7.951377e-04   -3.591281e-01 -9.278875e-01   -3.591286e-01 -9.278876e-01   -7.425776e-03  7.374025e-04
2.169600e+09   -7.406442e-03  8.478749e-04   -3.756394e-01 -9.213336e-01   -3.756399e-01 -9.213337e-01   -7.356052e-03  7.875876e-04
2.189500e+09   -7.332330e-03  8.973195e-04   -3.920380e-01 -9.144926e-01   -3.920384e-01 -9.144926e-01   -7.284388e-03  8.345738e-04
2.209400e+09   -7.256298e-03  9.433948e-04   -4.083194e-01 -9.073655e-01   -4.083198e-01 -9.073655e-01   -7.210927e-03  8.782904e-04
2.229300e+09   -7.178492e-03  9.860295e-04   -4.244792e-01 -8.999535e-01   -4.244795e-01 -8.999536e-01   -7.135810e-03  9.186723e-04
2.249200e+09   -7.099062e-03  1.025158e-03   -4.405128e-01 -8.922578e-01   -4.405131e-01 -8.922579e-01   -7.059184e-03  9.556602e-04
2.269100e+09   -7.018161e-03  1.060722e-03   -4.564156e-01 -8.842796e-01   -4.564159e-01 -8.842796e-01   -6.981196e-03  9.892007e-04
2.289000e+09   -6.935943e-03  1.092668e-03   -4.721828e-01 -8.760202e-01   -4.721830e-01 -8.760202e-01   -6.901995e-03  1.019246e-03
2.308900e+09   -6.852564e-03  1.120948e-03   -4.878095e-01 -8.674808e-01   -4.878097e-01 -8.674809e-01   -6.821732e-03  1.045755e-03
2.328800e+09   -6.768182e-03  1.145522e-03   -5.032908e-01 -8.586630e-01   -5.032909e-01 -8.586630e-01   -6.740561e-03  1.068691e-03
2.348700e+09   -6.682957e-03  1.166355e-03   -5.186216e-01 -8.495682e-01   -5.186217e-01 -8.495683e-01   -6.658634e-03  1.088026e-03
2.368600e+09   -6.597051e-03  1.183419e-03   -5.337968e-01 -8.401981e-01   -5.337969e-01 -8.401981e-01   -6.576108e-03  1.103734e-03
2.388500e+09   -6.510625e-03  1.196692e-03   -5.488112e-01 -8.305544e-01   -5.488113e-01 -8.305545e-01   -6.493138e-03  1.115800e-03
2.408400e+09   -6.423844e-03  1.206159e-03   -5.636594e-01 -8.206390e-01   -5.636595e-01 -8.206392e-01   -6.409882e-03  1.124212e-03
2.428300e+09   -6.336871e-03  1.211811e-03   -5.783361e-01 -8.104541e-01   -5.783361e-01 -8.104543e-01   -6.326496e-03  1.128965e-03
2.448200e+09   -6.249872e-03  1.213647e-03   -5.928358e-01 -8.000018e-01   -5.928358e-01 -8.000020e-01   -6.243139e-03  1.130061e-03
2.468100e+09   -6.163011e-03  1.211671e-03   -6.071531e-01 -7.892846e-01   -6.071531e-01 -7.892848e-01   -6.159968e-03  1.127508e-03
2.488000e+09   -6.076454e-03  1.205895e-03   -6.212824e-01 -7.783050e-01   -6.212824e-01 -7.783053e-01   -6.077142e-03  1.121321e-03
2.507900e+09   -5.990365e-03  1.196338e-03   -6.352183e-01 -7.670658e-01   -6.352183e-01 -7.670661e-01   -5.994817e-03  1.111521e-03
2.527800e+09   -5.904909e-03  1.183025e-03   -6.489551e-01 -7.555701e-01   -6.489551e-01 -7.555704e-01   -5.913151e-03  1.098136e-03
2.547700e+09   -5.820250e-03  1.165988e-03   -6.624874e-01 -7.438208e-01   -6.624874e-01 -7.438212e-01   -5.832298e-03  1.081200e-03
2.567600e+09   -5.736551e-03  1.145268e-03   -6.758096e-01 -7.318216e-01   -6.758096e-01 -7.318220e-01   -5.752415e-03  1.060754e-03
2.587500e+09   -5.653972e-03  1.120911e-03   -6.889164e-01 -7.195760e-01   -6.889164e-01 -7.195764e-01   -5.673653e-03  1.036846e-03
2.607400e+09   -5.572673e-03  1.092970e-03   -7.018022e-01 -7.070877e-01   -7.018022e-01 -7.070881e-01   -5.596164e-03  1.009530e-03
2.627300e+09   -5.492811e-03  1.061507e-03   -7.144618e-01 -6.943608e-01   -7.144619e-01 -6.943612e-01   -5.520098e-03  9.788678e-04
2.647200e+09   -5.414543e-03  1.026587e-03   -7.268900e-01 -6.813994e-01   -7.268901e-01 -6.814000e-01   -5.445601e-03  9.449261e-04
2.667100e+09   -5.338020e-03  9.882873e-04   -7.390815e-01 -6.682081e-01   -7.390816e-01 -6.682087e-01   -5.372818e-03  9.077790e-04
2.687000e+09   -5.263392e-03  9.466876e-04   -7.510315e-01 -6.547915e-01   -7.510316e-01 -6.547920e-01   -5.301890e-03  8.675069e-04
2.706900e+09   -5.190806e-03  9.018763e-04   -7.627349e-01 -6.411541e-01   -7.627351e-01 -6.411547e-01   -5.232954e-03  8.241967e-04
2.726800e+09   -5.120403e-03  8.539481e-04   -7.741871e-01 -6.273012e-01   -7.741873e-01 -6.273018e-01   -5.166145e-03  7.779412e-04
2.746700e+09   -5.052323e-03  8.030041e-04   -7.853834e-01 -6.132377e-01   -7.853836e-01 -6.132384e-01   -5.101593e-03  7.288396e-04
2.766600e+09   -4.986699e-03  7.491519e-04   -7.963195e-01 -5.989690e-01   -7.963198e-01 -5.989696e-01   -5.039425e-03  6.769966e-04
2.786500e+09   -4.923663e-03  6.925051e-04   -8.069911e-01 -5.845005e-01   -8.069914e-01 -5.845011e-01   -4.979762e-03  6.225232e-04
2.806400e+09   -4.863337e-03  6.331835e-04   -8.173941e-01 -5.698377e-01   -8.173944e-01 -5.698383e-01   -4.922721e-03  5.655356e-04
2.826300e+09   -4.805843e-03  5.713124e-04   -8.275246e-01 -5.549863e-01   -8.275250e-01 -5.549869e-01   -4.868413e-03  5.061554e-04
2.846200e+09   -4.751293e-03  5.070228e-04   -8.373791e-01 -5.399520e-01   -8.373795e-01 -5.399526e-01   -4.816946e-03  4.445096e-04
2.866100e+09   -4.699796e-03  4.404511e-04   -8.469539e-01 -5.247407e-01   -8.469544e-01 -5.247414e-01   -4.768419e-03  3.807298e-04
2.886000e+09   -4.651455e-03  3.717385e-04   -8.562459e-01 -5.093584e-01   -8.562464e-01 -5.093591e-01   -4.722928e-03  3.149525e-04
2.905900e+09   -4.606365e-03  3.010310e-04   -8.652519e-01 -4.938111e-01   -8.652524e-01 -4.938117e-01   -4.680561e-03  2.473184e-04
