#   Hz   S  RI   R   50
! 
!  Microstrip line with via fence on Aisler 6 layer HD stackup
!  Line length = combLineTabbed6G_2xthru (54.2mm) - SMA_Rosenbergerv2 fixture (28.9mm) = 23.5mm
!  Conductor losses only
!
!  Paramter List:
!    lossySubstrate = 0, Flag that indicates if substrate losses were enabled
!    lossyCondSheet = 1, Flag that indicates if the zero thickness conducting sheet model was used
!    w50 = 0.65, Width of the 50Ohm line
!    w50gndfree = 1.225, Seperation between RF trace edges to GND planes
!    lineLength = 23.5, Length of the microstrip transmission line
!    portLength = 8,  
!    measPlaneShiftP1 = 8,  
!    measPlaneShiftP2 = 8,  
!    feedShift = 3.74741,  
!    numViasX = 55,  
!    pcbX = 39.5,  
!    pcbY = 25,  
!    stackupL01th = 0,  
!    stackupSub01th = 0.13626,  
!    stackupL02th = 0,  
!    stackupSub02th = 0.2,  
!    stackupL03th = 0,  
!    viaD03 = 0.3,  
!    viaCpD03 = 0.6,  
!    viaClearD03 = 1,  
!    viaPitch = 0.6,  
!
1.000000e+08   -2.855457e-03 -4.944845e-04    9.955111e-01 -9.093014e-02    9.954999e-01 -9.099351e-02   -2.893646e-03 -4.874707e-04
1.199000e+08   -2.871508e-03 -5.919577e-04    9.936260e-01 -1.089384e-01    9.936012e-01 -1.090099e-01   -2.909399e-03 -5.835773e-04
1.398000e+08   -2.890442e-03 -6.889261e-04    9.914037e-01 -1.269000e-01    9.913637e-01 -1.269774e-01   -2.927982e-03 -6.791947e-04
1.597000e+08   -2.912247e-03 -7.853059e-04    9.888464e-01 -1.448075e-01    9.887897e-01 -1.448883e-01   -2.949386e-03 -7.742417e-04
1.796000e+08   -2.936911e-03 -8.810129e-04    9.859562e-01 -1.626537e-01    9.858818e-01 -1.627351e-01   -2.973598e-03 -8.686365e-04
1.995000e+08   -2.964418e-03 -9.759631e-04    9.827357e-01 -1.804315e-01    9.826431e-01 -1.805107e-01   -3.000604e-03 -9.622976e-04
2.194000e+08   -2.994752e-03 -1.070072e-03    9.791876e-01 -1.981342e-01    9.790765e-01 -1.982081e-01   -3.030391e-03 -1.055143e-03
2.393000e+08   -3.027894e-03 -1.163256e-03    9.753148e-01 -2.157550e-01    9.751855e-01 -2.158206e-01   -3.062940e-03 -1.147091e-03
2.592000e+08   -3.063824e-03 -1.255430e-03    9.711205e-01 -2.332875e-01    9.709737e-01 -2.333418e-01   -3.098233e-03 -1.238058e-03
2.791000e+08   -3.102519e-03 -1.346510e-03    9.666078e-01 -2.507255e-01    9.664447e-01 -2.507656e-01   -3.136249e-03 -1.327964e-03
2.990000e+08   -3.143955e-03 -1.436410e-03    9.617804e-01 -2.680631e-01    9.616024e-01 -2.680861e-01   -3.176967e-03 -1.416724e-03
3.189000e+08   -3.188106e-03 -1.525047e-03    9.566416e-01 -2.852946e-01    9.564509e-01 -2.852978e-01   -3.220361e-03 -1.504255e-03
3.388000e+08   -3.234942e-03 -1.612335e-03    9.511951e-01 -3.024144e-01    9.509940e-01 -3.023955e-01   -3.266406e-03 -1.590475e-03
3.587000e+08   -3.284433e-03 -1.698190e-03    9.454447e-01 -3.194172e-01    9.452358e-01 -3.193742e-01   -3.315073e-03 -1.675300e-03
3.786000e+08   -3.336545e-03 -1.782525e-03    9.393941e-01 -3.362981e-01    9.391805e-01 -3.362293e-01   -3.366333e-03 -1.758645e-03
3.985000e+08   -3.391244e-03 -1.865256e-03    9.330471e-01 -3.530523e-01    9.328321e-01 -3.529563e-01   -3.420151e-03 -1.840427e-03
4.184000e+08   -3.448491e-03 -1.946298e-03    9.264075e-01 -3.696752e-01    9.261946e-01 -3.695511e-01   -3.476494e-03 -1.920561e-03
4.383000e+08   -3.508247e-03 -2.025565e-03    9.194791e-01 -3.861625e-01    9.192720e-01 -3.860098e-01   -3.535324e-03 -1.998962e-03
4.582000e+08   -3.570467e-03 -2.102972e-03    9.122657e-01 -4.025100e-01    9.120681e-01 -4.023287e-01   -3.596601e-03 -2.075545e-03
4.781000e+08   -3.635107e-03 -2.178434e-03    9.047710e-01 -4.187137e-01    9.045867e-01 -4.185044e-01   -3.660282e-03 -2.150224e-03
4.980000e+08   -3.702117e-03 -2.251866e-03    8.969987e-01 -4.347698e-01    8.968314e-01 -4.345335e-01   -3.726322e-03 -2.222915e-03
5.179000e+08   -3.771448e-03 -2.323182e-03    8.889524e-01 -4.506748e-01    8.888059e-01 -4.504129e-01   -3.794672e-03 -2.293531e-03
5.378000e+08   -3.843043e-03 -2.392297e-03    8.806355e-01 -4.664251e-01    8.805134e-01 -4.661396e-01   -3.865281e-03 -2.361987e-03
5.577000e+08   -3.916846e-03 -2.459129e-03    8.720516e-01 -4.820174e-01    8.719572e-01 -4.817107e-01   -3.938095e-03 -2.428197e-03
5.776000e+08   -3.992796e-03 -2.523591e-03    8.632040e-01 -4.974485e-01    8.631403e-01 -4.971235e-01   -4.013054e-03 -2.492075e-03
5.975000e+08   -4.070829e-03 -2.585602e-03    8.540959e-01 -5.127151e-01    8.540658e-01 -5.123751e-01   -4.090098e-03 -2.553536e-03
6.174000e+08   -4.150877e-03 -2.645077e-03    8.447304e-01 -5.278143e-01    8.447362e-01 -5.274628e-01   -4.169162e-03 -2.612495e-03
6.373000e+08   -4.232869e-03 -2.701936e-03    8.351106e-01 -5.427429e-01    8.351544e-01 -5.423840e-01   -4.250175e-03 -2.668867e-03
6.572000e+08   -4.316731e-03 -2.756097e-03    8.252394e-01 -5.574980e-01    8.253226e-01 -5.571360e-01   -4.333066e-03 -2.722570e-03
6.771000e+08   -4.402384e-03 -2.807481e-03    8.151196e-01 -5.720766e-01    8.152432e-01 -5.717159e-01   -4.417757e-03 -2.773519e-03
6.970000e+08   -4.489746e-03 -2.856008e-03    8.047539e-01 -5.864757e-01    8.049185e-01 -5.861211e-01   -4.504167e-03 -2.821634e-03
7.169000e+08   -4.578730e-03 -2.901602e-03    7.941450e-01 -6.006923e-01    7.943505e-01 -6.003485e-01   -4.592210e-03 -2.866833e-03
7.368000e+08   -4.669246e-03 -2.944187e-03    7.832954e-01 -6.147235e-01    7.835412e-01 -6.143953e-01   -4.681796e-03 -2.909039e-03
7.567000e+08   -4.761200e-03 -2.983691e-03    7.722076e-01 -6.285661e-01    7.724926e-01 -6.282583e-01   -4.772830e-03 -2.948173e-03
7.766000e+08   -4.854494e-03 -3.020041e-03    7.608840e-01 -6.422170e-01    7.612064e-01 -6.419343e-01   -4.865215e-03 -2.984163e-03
7.965000e+08   -4.949025e-03 -3.053169e-03    7.493270e-01 -6.556731e-01    7.496845e-01 -6.554200e-01   -4.958844e-03 -3.016934e-03
8.164000e+08   -5.044686e-03 -3.083009e-03    7.375389e-01 -6.689310e-01    7.379287e-01 -6.687118e-01   -5.053611e-03 -3.046418e-03
8.363000e+08   -5.141366e-03 -3.109497e-03    7.255221e-01 -6.819875e-01    7.259407e-01 -6.818063e-01   -5.149403e-03 -3.072548e-03
8.562000e+08   -5.238951e-03 -3.132575e-03    7.132788e-01 -6.948390e-01    7.137225e-01 -6.946994e-01   -5.246100e-03 -3.095262e-03
8.761000e+08   -5.337321e-03 -3.152186e-03    7.008114e-01 -7.074820e-01    7.012758e-01 -7.073873e-01   -5.343582e-03 -3.114500e-03
8.960000e+08   -5.436352e-03 -3.168277e-03    6.881222e-01 -7.199129e-01    6.886026e-01 -7.198659e-01   -5.441720e-03 -3.130208e-03
9.159000e+08   -5.535919e-03 -3.180800e-03    6.752137e-01 -7.321278e-01    6.757050e-01 -7.321308e-01   -5.540385e-03 -3.142335e-03
9.358000e+08   -5.635890e-03 -3.189712e-03    6.620883e-01 -7.441230e-01    6.625851e-01 -7.441777e-01   -5.639440e-03 -3.150837e-03
9.557000e+08   -5.736129e-03 -3.194973e-03    6.487485e-01 -7.558945e-01    6.492452e-01 -7.560020e-01   -5.738745e-03 -3.155672e-03
9.756000e+08   -5.836500e-03 -3.196551e-03    6.351969e-01 -7.674381e-01    6.356878e-01 -7.675990e-01   -5.838158e-03 -3.156808e-03
9.955000e+08   -5.936859e-03 -3.194415e-03    6.214364e-01 -7.787498e-01    6.219155e-01 -7.789639e-01   -5.937530e-03 -3.154215e-03
1.015400e+09   -6.037063e-03 -3.188545e-03    6.074698e-01 -7.898253e-01    6.079312e-01 -7.900918e-01   -6.036712e-03 -3.147872e-03
1.035300e+09   -6.136963e-03 -3.178923e-03    5.933001e-01 -8.006602e-01    5.937379e-01 -8.009777e-01   -6.135550e-03 -3.137765e-03
1.055200e+09   -6.236410e-03 -3.165540e-03    5.789304e-01 -8.112502e-01    5.793390e-01 -8.116165e-01   -6.233887e-03 -3.123885e-03
1.075100e+09   -6.335250e-03 -3.148391e-03    5.643642e-01 -8.215909e-01    5.647379e-01 -8.220031e-01   -6.331566e-03 -3.106231e-03
1.095000e+09   -6.433328e-03 -3.127480e-03    5.496049e-01 -8.316777e-01    5.499385e-01 -8.321325e-01   -6.428425e-03 -3.084812e-03
1.114900e+09   -6.530489e-03 -3.102818e-03    5.346562e-01 -8.415061e-01    5.349449e-01 -8.419994e-01   -6.524303e-03 -3.059641e-03
1.134800e+09   -6.626575e-03 -3.074422e-03    5.195221e-01 -8.510716e-01    5.197613e-01 -8.515988e-01   -6.619037e-03 -3.030744e-03
1.154700e+09   -6.721426e-03 -3.042317e-03    5.042067e-01 -8.603696e-01    5.043924e-01 -8.609257e-01   -6.712464e-03 -2.998150e-03
1.174600e+09   -6.814884e-03 -3.006537e-03    4.887143e-01 -8.693958e-01    4.888430e-01 -8.699750e-01   -6.804420e-03 -2.961901e-03
1.194500e+09   -6.906790e-03 -2.967123e-03    4.730494e-01 -8.781455e-01    4.731184e-01 -8.787419e-01   -6.894743e-03 -2.922045e-03
1.214400e+09   -6.996985e-03 -2.924123e-03    4.572169e-01 -8.866145e-01    4.572238e-01 -8.872217e-01   -6.983272e-03 -2.878639e-03
1.234300e+09   -7.085311e-03 -2.877594e-03    4.412216e-01 -8.947983e-01    4.411651e-01 -8.954097e-01   -7.069846e-03 -2.831749e-03
1.254200e+09   -7.171613e-03 -2.827602e-03    4.250689e-01 -9.026927e-01    4.249481e-01 -9.033015e-01   -7.154308e-03 -2.781450e-03
1.274100e+09   -7.255735e-03 -2.774220e-03    4.087640e-01 -9.102936e-01    4.085790e-01 -9.108929e-01   -7.236505e-03 -2.727825e-03
1.294000e+09   -7.337526e-03 -2.717529e-03    3.923128e-01 -9.175971e-01    3.920642e-01 -9.181798e-01   -7.316283e-03 -2.670965e-03
1.313900e+09   -7.416836e-03 -2.657618e-03    3.757208e-01 -9.245992e-01    3.754103e-01 -9.251585e-01   -7.393497e-03 -2.610971e-03
1.333800e+09   -7.493521e-03 -2.594584e-03    3.589943e-01 -9.312962e-01    3.586240e-01 -9.318254e-01   -7.468004e-03 -2.547949e-03
1.353700e+09   -7.567437e-03 -2.528534e-03    3.421394e-01 -9.376848e-01    3.417124e-01 -9.381772e-01   -7.539666e-03 -2.482016e-03
1.373600e+09   -7.638449e-03 -2.459578e-03    3.251624e-01 -9.437615e-01    3.246825e-01 -9.442110e-01   -7.608352e-03 -2.413295e-03
1.393500e+09   -7.706423e-03 -2.387839e-03    3.080699e-01 -9.495233e-01    3.075416e-01 -9.499241e-01   -7.673935e-03 -2.341916e-03
1.413400e+09   -7.771232e-03 -2.313442e-03    2.908687e-01 -9.549672e-01    2.902969e-01 -9.553140e-01   -7.736296e-03 -2.268015e-03
1.433300e+09   -7.832756e-03 -2.236521e-03    2.735654e-01 -9.600907e-01    2.729559e-01 -9.603787e-01   -7.795323e-03 -2.191737e-03
1.453200e+09   -7.890879e-03 -2.157218e-03    2.561669e-01 -9.648914e-01    2.555260e-01 -9.651164e-01   -7.850911e-03 -2.113229e-03
1.473100e+09   -7.945493e-03 -2.075680e-03    2.386805e-01 -9.693670e-01    2.380147e-01 -9.695255e-01   -7.902962e-03 -2.032646e-03
1.493000e+09   -7.996497e-03 -1.992058e-03    2.211130e-01 -9.735156e-01    2.204295e-01 -9.736050e-01   -7.951388e-03 -1.950148e-03
1.512900e+09   -8.043798e-03 -1.906510e-03    2.034716e-01 -9.773357e-01    2.027778e-01 -9.773539e-01   -7.996106e-03 -1.865899e-03
1.532800e+09   -8.087308e-03 -1.819201e-03    1.857637e-01 -9.808258e-01    1.850671e-01 -9.807717e-01   -8.037045e-03 -1.780065e-03
1.552700e+09   -8.126951e-03 -1.730296e-03    1.679962e-01 -9.839849e-01    1.673046e-01 -9.838580e-01   -8.074141e-03 -1.692818e-03
1.572600e+09   -8.162657e-03 -1.639968e-03    1.501766e-01 -9.868119e-01    1.494976e-01 -9.866128e-01   -8.107338e-03 -1.604331e-03
1.592500e+09   -8.194364e-03 -1.548391e-03    1.323119e-01 -9.893064e-01    1.316533e-01 -9.890365e-01   -8.136590e-03 -1.514779e-03
1.612400e+09   -8.222020e-03 -1.455744e-03    1.144093e-01 -9.914680e-01    1.137787e-01 -9.911293e-01   -8.161860e-03 -1.424341e-03
1.632300e+09   -8.245582e-03 -1.362206e-03    9.647602e-02 -9.932965e-01    9.588068e-02 -9.928922e-01   -8.183120e-03 -1.333194e-03
1.652200e+09   -8.265014e-03 -1.267960e-03    7.851904e-02 -9.947921e-01    7.796592e-02 -9.943259e-01   -8.200350e-03 -1.241518e-03
1.672100e+09   -8.280292e-03 -1.173189e-03    6.054535e-02 -9.959552e-01    6.004100e-02 -9.954316e-01   -8.213539e-03 -1.149491e-03
1.692000e+09   -8.291397e-03 -1.078080e-03    4.256184e-02 -9.967863e-01    4.211230e-02 -9.962105e-01   -8.222686e-03 -1.057293e-03
1.711900e+09   -8.298324e-03 -9.828162e-04    2.457528e-02 -9.972862e-01    2.418603e-02 -9.966641e-01   -8.227796e-03 -9.650996e-04
1.731800e+09   -8.301072e-03 -8.875834e-04    6.592344e-03 -9.974559e-01    6.268194e-03 -9.967940e-01   -8.228886e-03 -8.730887e-04
1.751700e+09   -8.299654e-03 -7.925662e-04   -1.138044e-02 -9.972965e-01   -1.163537e-02 -9.966017e-01   -8.225977e-03 -7.814344e-04
1.771600e+09   -8.294087e-03 -6.979481e-04   -2.933667e-02 -9.968094e-01   -2.951902e-02 -9.960891e-01   -8.219103e-03 -6.903090e-04
1.791500e+09   -8.284400e-03 -6.039110e-04   -4.727008e-02 -9.959960e-01   -4.737730e-02 -9.952579e-01   -8.208300e-03 -5.998821e-04
1.811400e+09   -8.270629e-03 -5.106350e-04   -6.517456e-02 -9.948580e-01   -6.520493e-02 -9.941101e-01   -8.193616e-03 -5.103207e-04
1.831300e+09   -8.252819e-03 -4.182977e-04   -8.304414e-02 -9.933970e-01   -8.299681e-02 -9.926475e-01   -8.175105e-03 -4.217882e-04
1.851200e+09   -8.231023e-03 -3.270739e-04   -1.008730e-01 -9.916149e-01   -1.007480e-01 -9.908719e-01   -8.152826e-03 -3.344447e-04
1.871100e+09   -8.205302e-03 -2.371353e-04   -1.186555e-01 -9.895137e-01   -1.184537e-01 -9.887854e-01   -8.126848e-03 -2.484465e-04
1.891000e+09   -8.175724e-03 -1.486499e-04   -1.363861e-01 -9.870953e-01   -1.361093e-01 -9.863898e-01   -8.097244e-03 -1.639459e-04
1.910900e+09   -8.142367e-03 -6.178190e-05   -1.540594e-01 -9.843619e-01   -1.537103e-01 -9.836870e-01   -8.064092e-03 -8.109069e-05
1.930800e+09   -8.105312e-03  2.330879e-05   -1.716703e-01 -9.813155e-01   -1.712522e-01 -9.806787e-01   -8.027480e-03 -2.457039e-08
1.950700e+09   -8.064650e-03  1.064667e-04   -1.892136e-01 -9.779583e-01   -1.887308e-01 -9.773667e-01   -7.987498e-03  7.911350e-05
1.970600e+09   -8.020478e-03  1.875413e-04   -2.066844e-01 -9.742925e-01   -2.061418e-01 -9.737527e-01   -7.944243e-03  1.561893e-04
1.990500e+09   -7.972899e-03  2.663870e-04   -2.240779e-01 -9.703203e-01   -2.234812e-01 -9.698385e-01   -7.897814e-03  2.310734e-04
2.010400e+09   -7.922022e-03  3.428635e-04   -2.413893e-01 -9.660438e-01   -2.407448e-01 -9.656254e-01   -7.848320e-03  3.036415e-04
2.030300e+09   -7.867961e-03  4.168361e-04   -2.586140e-01 -9.614654e-01   -2.579286e-01 -9.611151e-01   -7.795869e-03  3.737741e-04
2.050200e+09   -7.810837e-03  4.881755e-04   -2.757476e-01 -9.565871e-01   -2.750285e-01 -9.563090e-01   -7.740577e-03  4.413572e-04
2.070100e+09   -7.750775e-03  5.567585e-04   -2.927856e-01 -9.514111e-01   -2.920406e-01 -9.512085e-01   -7.682562e-03  5.062818e-04
2.090000e+09   -7.687904e-03  6.224679e-04   -3.097237e-01 -9.459397e-01   -3.089607e-01 -9.458148e-01   -7.621947e-03  5.684442e-04
2.109900e+09   -7.622360e-03  6.851926e-04   -3.265576e-01 -9.401749e-01   -3.257848e-01 -9.401293e-01   -7.558857e-03  6.277461e-04
2.129800e+09   -7.554280e-03  7.448276e-04   -3.432830e-01 -9.341187e-01   -3.425089e-01 -9.341532e-01   -7.493423e-03  6.840946e-04
2.149700e+09   -7.483808e-03  8.012746e-04   -3.598958e-01 -9.277733e-01   -3.591286e-01 -9.278876e-01   -7.425776e-03  7.374025e-04
2.169600e+09   -7.411090e-03  8.544414e-04   -3.763918e-01 -9.211407e-01   -3.756399e-01 -9.213337e-01   -7.356052e-03  7.875876e-04
2.189500e+09   -7.336274e-03  9.042426e-04   -3.927669e-01 -9.142230e-01   -3.920384e-01 -9.144926e-01   -7.284388e-03  8.345738e-04
2.209400e+09   -7.259514e-03  9.505993e-04   -4.090170e-01 -9.070220e-01   -4.083198e-01 -9.073655e-01   -7.210927e-03  8.782904e-04
2.229300e+09   -7.180965e-03  9.934393e-04   -4.251379e-01 -8.995398e-01   -4.244795e-01 -8.999536e-01   -7.135810e-03  9.186723e-04
2.249200e+09   -7.100784e-03  1.032697e-03   -4.411255e-01 -8.917782e-01   -4.405131e-01 -8.922579e-01   -7.059184e-03  9.556602e-04
2.269100e+09   -7.019131e-03  1.068315e-03   -4.569757e-01 -8.837393e-01   -4.564159e-01 -8.842796e-01   -6.981196e-03  9.892007e-04
2.289000e+09   -6.936168e-03  1.100239e-03   -4.726842e-01 -8.754250e-01   -4.721830e-01 -8.760202e-01   -6.901995e-03  1.019246e-03
2.308900e+09   -6.852059e-03  1.128426e-03   -4.882468e-01 -8.668372e-01   -4.878097e-01 -8.674809e-01   -6.821732e-03  1.045755e-03
2.328800e+09   -6.766969e-03  1.152838e-03   -5.036593e-01 -8.579778e-01   -5.032909e-01 -8.586630e-01   -6.740561e-03  1.068691e-03
2.348700e+09   -6.681064e-03  1.173443e-03   -5.189175e-01 -8.488489e-01   -5.186217e-01 -8.495683e-01   -6.658634e-03  1.088026e-03
2.368600e+09   -6.594511e-03  1.190217e-03   -5.340169e-01 -8.394524e-01   -5.337969e-01 -8.401981e-01   -6.576108e-03  1.103734e-03
2.388500e+09   -6.507478e-03  1.203143e-03   -5.489531e-01 -8.297905e-01   -5.488113e-01 -8.305545e-01   -6.493138e-03  1.115800e-03
2.408400e+09   -6.420134e-03  1.212211e-03   -5.637217e-01 -8.198651e-01   -5.636595e-01 -8.206392e-01   -6.409882e-03  1.124212e-03
2.428300e+09   -6.332646e-03  1.217418e-03   -5.783183e-01 -8.096784e-01   -5.783361e-01 -8.104543e-01   -6.326496e-03  1.128965e-03
2.448200e+09   -6.245184e-03  1.218766e-03   -5.927382e-01 -7.992328e-01   -5.928358e-01 -8.000020e-01   -6.243139e-03  1.130061e-03
2.468100e+09   -6.157914e-03  1.216268e-03   -6.069769e-01 -7.885305e-01   -6.071531e-01 -7.892848e-01   -6.159968e-03  1.127508e-03
2.488000e+09   -6.071005e-03  1.209940e-03   -6.210296e-01 -7.775739e-01   -6.212824e-01 -7.783053e-01   -6.077142e-03  1.121321e-03
2.507900e+09   -5.984624e-03  1.199808e-03   -6.348918e-01 -7.663655e-01   -6.352183e-01 -7.670661e-01   -5.994817e-03  1.111521e-03
2.527800e+09   -5.898934e-03  1.185903e-03   -6.485586e-01 -7.549080e-01   -6.489551e-01 -7.555704e-01   -5.913151e-03  1.098136e-03
2.547700e+09   -5.814102e-03  1.168263e-03   -6.620254e-01 -7.432041e-01   -6.624874e-01 -7.438212e-01   -5.832298e-03  1.081200e-03
2.567600e+09   -5.730288e-03  1.146935e-03   -6.752873e-01 -7.312567e-01   -6.758096e-01 -7.318220e-01   -5.752415e-03  1.060754e-03
2.587500e+09   -5.647653e-03  1.121970e-03   -6.883394e-01 -7.190688e-01   -6.889164e-01 -7.195764e-01   -5.673653e-03  1.036846e-03
2.607400e+09   -5.566356e-03  1.093428e-03   -7.011771e-01 -7.066435e-01   -7.018022e-01 -7.070881e-01   -5.596164e-03  1.009530e-03
2.627300e+09   -5.486552e-03  1.061373e-03   -7.137955e-01 -6.939842e-01   -7.144619e-01 -6.943612e-01   -5.520098e-03  9.788678e-04
2.647200e+09   -5.408395e-03  1.025880e-03   -7.261897e-01 -6.810942e-01   -7.268901e-01 -6.814000e-01   -5.445601e-03  9.449261e-04
2.667100e+09   -5.332033e-03  9.870263e-04   -7.383550e-01 -6.679773e-01   -7.390816e-01 -6.682087e-01   -5.372818e-03  9.077790e-04
2.687000e+09   -5.257614e-03  9.448979e-04   -7.502866e-01 -6.546372e-01   -7.510316e-01 -6.547920e-01   -5.301890e-03  8.675069e-04
2.706900e+09   -5.185281e-03  8.995864e-04   -7.619798e-01 -6.410778e-01   -7.627351e-01 -6.411547e-01   -5.232954e-03  8.241967e-04
2.726800e+09   -5.115172e-03  8.511900e-04   -7.734299e-01 -6.273032e-01   -7.741873e-01 -6.273018e-01   -5.166145e-03  7.779412e-04
2.746700e+09   -5.047422e-03  7.998128e-04   -7.846323e-01 -6.133177e-01   -7.853836e-01 -6.132384e-01   -5.101593e-03  7.288396e-04
2.766600e+09   -4.982163e-03  7.455648e-04   -7.955826e-01 -5.991257e-01   -7.963198e-01 -5.989696e-01   -5.039425e-03  6.769966e-04
2.786500e+09   -4.919519e-03  6.885617e-04   -8.062762e-01 -5.847318e-01   -8.069914e-01 -5.845011e-01   -4.979762e-03  6.225232e-04
2.806400e+09   -4.859611e-03  6.289249e-04   -8.167088e-01 -5.701407e-01   -8.173944e-01 -5.698383e-01   -4.922721e-03  5.655356e-04
2.826300e+09   -4.802554e-03  5.667812e-04   -8.268762e-01 -5.553573e-01   -8.275250e-01 -5.549869e-01   -4.868413e-03  5.061554e-04
2.846200e+09   -4.748459e-03  5.022623e-04   -8.367742e-01 -5.403868e-01   -8.373795e-01 -5.399526e-01   -4.816946e-03  4.445096e-04
2.866100e+09   -4.697430e-03  4.355051e-04   -8.463989e-01 -5.252341e-01   -8.469544e-01 -5.247414e-01   -4.768419e-03  3.807298e-04
2.886000e+09   -4.649564e-03  3.666509e-04   -8.557464e-01 -5.099047e-01   -8.562464e-01 -5.093591e-01   -4.722928e-03  3.149525e-04
2.905900e+09   -4.604954e-03  2.958457e-04   -8.648129e-01 -4.944041e-01   -8.652524e-01 -4.938117e-01   -4.680561e-03  2.473184e-04
