#   Hz   S  RI   R   50
! 
!  Microstrip line with via fence on Aisler 6 layer HD stackup
!  Line length = combLineTabbed6G_2xthru (54.2mm) - SMA_Rosenbergerv2 fixture (28.9mm) = 23.5mm
!  No losses
!
!  Paramter List:
!    lossySubstrate = 0, Flag that indicates if substrate losses were enabled
!    lossyCondSheet = 0, Flag that indicates if the zero thickness conducting sheet model was used
!    w50 = 0.65, Width of the 50Ohm line
!    w50gndfree = 1.225, Seperation between RF trace edges to GND planes
!    lineLength = 23.5, Length of the microstrip transmission line
!    portLength = 8,  
!    measPlaneShiftP1 = 8,  
!    measPlaneShiftP2 = 8,  
!    feedShift = 3.74741,  
!    numViasX = 55,  
!    pcbX = 39.5,  
!    pcbY = 25,  
!    stackupL01th = 0.04,  
!    stackupSub01th = 0.13626,  
!    stackupL02th = 0.035,  
!    stackupSub02th = 0.2,  
!    stackupL03th = 0.035,  
!    viaD03 = 0.3,  
!    viaCpD03 = 0.6,  
!    viaClearD03 = 1,  
!    viaPitch = 0.6,  
!
1.000000e+08    1.039584e-02 -4.762650e-04    9.977487e-01 -8.923190e-02    9.977479e-01 -8.923176e-02    1.039832e-02 -4.766002e-04
1.199000e+08    1.037236e-02 -5.688505e-04    9.959325e-01 -1.069047e-01    9.959317e-01 -1.069045e-01    1.037481e-02 -5.692495e-04
1.398000e+08    1.034475e-02 -6.602573e-04    9.937919e-01 -1.245321e-01    9.937911e-01 -1.245319e-01    1.034718e-02 -6.607187e-04
1.597000e+08    1.031309e-02 -7.502990e-04    9.913289e-01 -1.421072e-01    9.913282e-01 -1.421070e-01    1.031549e-02 -7.508211e-04
1.796000e+08    1.027744e-02 -8.387934e-04    9.885460e-01 -1.596229e-01    9.885452e-01 -1.596227e-01    1.027981e-02 -8.393743e-04
1.995000e+08    1.023788e-02 -9.255626e-04    9.854457e-01 -1.770726e-01    9.854449e-01 -1.770724e-01    1.024023e-02 -9.262001e-04
2.194000e+08    1.019451e-02 -1.010434e-03    9.820308e-01 -1.944498e-01    9.820301e-01 -1.944495e-01    1.019682e-02 -1.011126e-03
2.393000e+08    1.014742e-02 -1.093239e-03    9.783044e-01 -2.117481e-01    9.783036e-01 -2.117478e-01    1.014969e-02 -1.093983e-03
2.592000e+08    1.009672e-02 -1.173818e-03    9.742696e-01 -2.289616e-01    9.742689e-01 -2.289612e-01    1.009894e-02 -1.174611e-03
2.791000e+08    1.004250e-02 -1.252013e-03    9.699298e-01 -2.460845e-01    9.699291e-01 -2.460841e-01    1.004469e-02 -1.252853e-03
2.990000e+08    9.984903e-03 -1.327677e-03    9.652884e-01 -2.631112e-01    9.652877e-01 -2.631107e-01    9.987038e-03 -1.328560e-03
3.189000e+08    9.924037e-03 -1.400665e-03    9.603491e-01 -2.800365e-01    9.603484e-01 -2.800360e-01    9.926124e-03 -1.401589e-03
3.388000e+08    9.860033e-03 -1.470843e-03    9.551155e-01 -2.968554e-01    9.551148e-01 -2.968549e-01    9.862071e-03 -1.471805e-03
3.587000e+08    9.793025e-03 -1.538081e-03    9.495912e-01 -3.135632e-01    9.495905e-01 -3.135627e-01    9.795012e-03 -1.539077e-03
3.786000e+08    9.723152e-03 -1.602257e-03    9.437799e-01 -3.301553e-01    9.437793e-01 -3.301548e-01    9.725087e-03 -1.603285e-03
3.985000e+08    9.650555e-03 -1.663256e-03    9.376855e-01 -3.466276e-01    9.376849e-01 -3.466270e-01    9.652438e-03 -1.664312e-03
4.184000e+08    9.575381e-03 -1.720970e-03    9.313115e-01 -3.629759e-01    9.313109e-01 -3.629753e-01    9.577211e-03 -1.722052e-03
4.383000e+08    9.497779e-03 -1.775298e-03    9.246616e-01 -3.791966e-01    9.246610e-01 -3.791959e-01    9.499554e-03 -1.776403e-03
4.582000e+08    9.417900e-03 -1.826148e-03    9.177394e-01 -3.952860e-01    9.177389e-01 -3.952853e-01    9.419622e-03 -1.827271e-03
4.781000e+08    9.335901e-03 -1.873432e-03    9.105484e-01 -4.112406e-01    9.105479e-01 -4.112399e-01    9.337568e-03 -1.874572e-03
4.980000e+08    9.251937e-03 -1.917071e-03    9.030919e-01 -4.270573e-01    9.030914e-01 -4.270566e-01    9.253550e-03 -1.918224e-03
5.179000e+08    9.166168e-03 -1.956993e-03    8.953734e-01 -4.427331e-01    8.953729e-01 -4.427323e-01    9.167728e-03 -1.958156e-03
5.378000e+08    9.078753e-03 -1.993131e-03    8.873958e-01 -4.582648e-01    8.873954e-01 -4.582640e-01    9.080260e-03 -1.994301e-03
5.577000e+08    8.989856e-03 -2.025426e-03    8.791624e-01 -4.736497e-01    8.791620e-01 -4.736489e-01    8.991310e-03 -2.026602e-03
5.776000e+08    8.899638e-03 -2.053827e-03    8.706759e-01 -4.888851e-01    8.706756e-01 -4.888843e-01    8.901041e-03 -2.055005e-03
5.975000e+08    8.808264e-03 -2.078287e-03    8.619392e-01 -5.039682e-01    8.619389e-01 -5.039673e-01    8.809617e-03 -2.079465e-03
6.174000e+08    8.715898e-03 -2.098767e-03    8.529550e-01 -5.188964e-01    8.529547e-01 -5.188955e-01    8.717201e-03 -2.099942e-03
6.373000e+08    8.622705e-03 -2.115234e-03    8.437257e-01 -5.336671e-01    8.437255e-01 -5.336662e-01    8.623959e-03 -2.116404e-03
6.572000e+08    8.528849e-03 -2.127660e-03    8.342536e-01 -5.482776e-01    8.342535e-01 -5.482767e-01    8.530057e-03 -2.128824e-03
6.771000e+08    8.434497e-03 -2.136026e-03    8.245412e-01 -5.627253e-01    8.245411e-01 -5.627244e-01    8.435660e-03 -2.137181e-03
6.970000e+08    8.339814e-03 -2.140315e-03    8.145904e-01 -5.770076e-01    8.145904e-01 -5.770066e-01    8.340932e-03 -2.141460e-03
7.169000e+08    8.244965e-03 -2.140520e-03    8.044034e-01 -5.911216e-01    8.044034e-01 -5.911207e-01    8.246041e-03 -2.141652e-03
7.368000e+08    8.150115e-03 -2.136637e-03    7.939821e-01 -6.050647e-01    7.939821e-01 -6.050637e-01    8.151151e-03 -2.137756e-03
7.567000e+08    8.055430e-03 -2.128669e-03    7.833283e-01 -6.188338e-01    7.833284e-01 -6.188329e-01    8.056426e-03 -2.129773e-03
7.766000e+08    7.961073e-03 -2.116624e-03    7.724438e-01 -6.324261e-01    7.724439e-01 -6.324252e-01    7.962033e-03 -2.117713e-03
7.965000e+08    7.867209e-03 -2.100518e-03    7.613304e-01 -6.458384e-01    7.613306e-01 -6.458375e-01    7.868133e-03 -2.101590e-03
8.164000e+08    7.774002e-03 -2.080371e-03    7.499898e-01 -6.590675e-01    7.499900e-01 -6.590665e-01    7.774892e-03 -2.081425e-03
8.363000e+08    7.681613e-03 -2.056208e-03    7.384237e-01 -6.721099e-01    7.384240e-01 -6.721090e-01    7.682471e-03 -2.057244e-03
8.562000e+08    7.590205e-03 -2.028062e-03    7.266338e-01 -6.849623e-01    7.266342e-01 -6.849615e-01    7.591032e-03 -2.029079e-03
8.761000e+08    7.499938e-03 -1.995970e-03    7.146219e-01 -6.976211e-01    7.146223e-01 -6.976202e-01    7.500737e-03 -1.996968e-03
8.960000e+08    7.410973e-03 -1.959976e-03    7.023898e-01 -7.100823e-01    7.023903e-01 -7.100815e-01    7.411745e-03 -1.960954e-03
9.159000e+08    7.323469e-03 -1.920130e-03    6.899393e-01 -7.223421e-01    6.899398e-01 -7.223414e-01    7.324215e-03 -1.921088e-03
9.358000e+08    7.237582e-03 -1.876487e-03    6.772724e-01 -7.343966e-01    6.772730e-01 -7.343958e-01    7.238304e-03 -1.877426e-03
9.557000e+08    7.153468e-03 -1.829109e-03    6.643912e-01 -7.462414e-01    6.643918e-01 -7.462407e-01    7.154168e-03 -1.830028e-03
9.756000e+08    7.071281e-03 -1.778064e-03    6.512979e-01 -7.578723e-01    6.512985e-01 -7.578716e-01    7.071961e-03 -1.778963e-03
9.955000e+08    6.991174e-03 -1.723425e-03    6.379948e-01 -7.692848e-01    6.379954e-01 -7.692842e-01    6.991834e-03 -1.724305e-03
1.015400e+09    6.913295e-03 -1.665273e-03    6.244843e-01 -7.804746e-01    6.244850e-01 -7.804740e-01    6.913937e-03 -1.666134e-03
1.035300e+09    6.837793e-03 -1.603694e-03    6.107693e-01 -7.914368e-01    6.107701e-01 -7.914363e-01    6.838417e-03 -1.604536e-03
1.055200e+09    6.764811e-03 -1.538780e-03    5.968526e-01 -8.021670e-01    5.968533e-01 -8.021665e-01    6.765419e-03 -1.539604e-03
1.075100e+09    6.694491e-03 -1.470631e-03    5.827372e-01 -8.126602e-01    5.827380e-01 -8.126598e-01    6.695084e-03 -1.471437e-03
1.095000e+09    6.626971e-03 -1.399351e-03    5.684265e-01 -8.229118e-01    5.684274e-01 -8.229115e-01    6.627551e-03 -1.400139e-03
1.114900e+09    6.562387e-03 -1.325051e-03    5.539241e-01 -8.329170e-01    5.539250e-01 -8.329167e-01    6.562953e-03 -1.325823e-03
1.134800e+09    6.500868e-03 -1.247849e-03    5.392337e-01 -8.426709e-01    5.392346e-01 -8.426706e-01    6.501422e-03 -1.248604e-03
1.154700e+09    6.442541e-03 -1.167868e-03    5.243593e-01 -8.521687e-01    5.243602e-01 -8.521685e-01    6.443083e-03 -1.168608e-03
1.174600e+09    6.387527e-03 -1.085237e-03    5.093052e-01 -8.614057e-01    5.093061e-01 -8.614056e-01    6.388059e-03 -1.085962e-03
1.194500e+09    6.335944e-03 -1.000092e-03    4.940760e-01 -8.703773e-01    4.940769e-01 -8.703772e-01    6.336465e-03 -1.000803e-03
1.214400e+09    6.287902e-03 -9.125740e-04    4.786763e-01 -8.790788e-01    4.786772e-01 -8.790787e-01    6.288414e-03 -9.132711e-04
1.234300e+09    6.243507e-03 -8.228288e-04    4.631112e-01 -8.875057e-01    4.631121e-01 -8.875057e-01    6.244010e-03 -8.235129e-04
1.254200e+09    6.202859e-03 -7.310083e-04    4.473860e-01 -8.956538e-01    4.473868e-01 -8.956538e-01    6.203353e-03 -7.316800e-04
1.274100e+09    6.166051e-03 -6.372693e-04    4.315060e-01 -9.035187e-01    4.315068e-01 -9.035188e-01    6.166537e-03 -6.379293e-04
1.294000e+09    6.133170e-03 -5.417733e-04    4.154770e-01 -9.110964e-01    4.154778e-01 -9.110965e-01    6.133648e-03 -5.424222e-04
1.313900e+09    6.104295e-03 -4.446863e-04    3.993049e-01 -9.183830e-01    3.993057e-01 -9.183832e-01    6.104765e-03 -4.453247e-04
1.333800e+09    6.079499e-03 -3.461785e-04    3.829958e-01 -9.253750e-01    3.829966e-01 -9.253753e-01    6.079961e-03 -3.468069e-04
1.353700e+09    6.058846e-03 -2.464237e-04    3.665559e-01 -9.320689e-01    3.665566e-01 -9.320691e-01    6.059300e-03 -2.470428e-04
1.373600e+09    6.042393e-03 -1.455994e-04    3.499916e-01 -9.384614e-01    3.499924e-01 -9.384617e-01    6.042840e-03 -1.462097e-04
1.393500e+09    6.030189e-03 -4.388579e-05    3.333096e-01 -9.445496e-01    3.333104e-01 -9.445499e-01    6.030628e-03 -4.448785e-05
1.413400e+09    6.022274e-03  5.853404e-05    3.165166e-01 -9.503308e-01    3.165173e-01 -9.503312e-01    6.022706e-03  5.793973e-05
1.433300e+09    6.018680e-03  1.614750e-04    2.996192e-01 -9.558026e-01    2.996199e-01 -9.558031e-01    6.019105e-03  1.608880e-04
1.453200e+09    6.019432e-03  2.647504e-04    2.826245e-01 -9.609628e-01    2.826251e-01 -9.609633e-01    6.019849e-03  2.641701e-04
1.473100e+09    6.024543e-03  3.681721e-04    2.655393e-01 -9.658096e-01    2.655399e-01 -9.658101e-01    6.024953e-03  3.675981e-04
1.493000e+09    6.034020e-03  4.715513e-04    2.483706e-01 -9.703413e-01    2.483712e-01 -9.703418e-01    6.034423e-03  4.709832e-04
1.512900e+09    6.047860e-03  5.746988e-04    2.311255e-01 -9.745565e-01    2.311260e-01 -9.745571e-01    6.048256e-03  5.741363e-04
1.532800e+09    6.066052e-03  6.774259e-04    2.138108e-01 -9.784543e-01    2.138113e-01 -9.784549e-01    6.066440e-03  6.768683e-04
1.552700e+09    6.088575e-03  7.795441e-04    1.964336e-01 -9.820339e-01    1.964341e-01 -9.820344e-01    6.088955e-03  7.789912e-04
1.572600e+09    6.115399e-03  8.808663e-04    1.790009e-01 -9.852946e-01    1.790013e-01 -9.852952e-01    6.115772e-03  8.803178e-04
1.592500e+09    6.146488e-03  9.812071e-04    1.615194e-01 -9.882363e-01    1.615198e-01 -9.882369e-01    6.146852e-03  9.806624e-04
1.612400e+09    6.181795e-03  1.080383e-03    1.439959e-01 -9.908590e-01    1.439962e-01 -9.908595e-01    6.182151e-03  1.079842e-03
1.632300e+09    6.221265e-03  1.178212e-03    1.264371e-01 -9.931627e-01    1.264374e-01 -9.931633e-01    6.221613e-03  1.177674e-03
1.652200e+09    6.264835e-03  1.274518e-03    1.088496e-01 -9.951480e-01    1.088499e-01 -9.951486e-01    6.265174e-03  1.273983e-03
1.672100e+09    6.312434e-03  1.369124e-03    9.123986e-02 -9.968155e-01    9.124014e-02 -9.968160e-01    6.312765e-03  1.368592e-03
1.692000e+09    6.363984e-03  1.461860e-03    7.361412e-02 -9.981659e-01    7.361437e-02 -9.981665e-01    6.364306e-03  1.461330e-03
1.711900e+09    6.419399e-03  1.552559e-03    5.597855e-02 -9.992004e-01    5.597878e-02 -9.992009e-01    6.419712e-03  1.552030e-03
1.731800e+09    6.478584e-03  1.641058e-03    3.833917e-02 -9.999199e-01    3.833938e-02 -9.999205e-01    6.478888e-03  1.640531e-03
1.751700e+09    6.541440e-03  1.727199e-03    2.070181e-02 -1.000326e+00    2.070201e-02 -1.000326e+00    6.541734e-03  1.726673e-03
1.771600e+09    6.607859e-03  1.810829e-03    3.072161e-03 -1.000420e+00    3.072343e-03 -1.000420e+00    6.608142e-03  1.810304e-03
1.791500e+09    6.677727e-03  1.891801e-03   -1.454428e-02 -1.000203e+00   -1.454411e-02 -1.000203e+00    6.678000e-03  1.891276e-03
1.811400e+09    6.750925e-03  1.969972e-03   -3.214215e-02 -9.996764e-01   -3.214199e-02 -9.996769e-01    6.751187e-03  1.969448e-03
1.831300e+09    6.827327e-03  2.045206e-03   -4.971628e-02 -9.988427e-01   -4.971612e-02 -9.988432e-01    6.827578e-03  2.044682e-03
1.851200e+09    6.906802e-03  2.117373e-03   -6.726163e-02 -9.977032e-01   -6.726148e-02 -9.977037e-01    6.907041e-03  2.116848e-03
1.871100e+09    6.989214e-03  2.186349e-03   -8.477334e-02 -9.962596e-01   -8.477319e-02 -9.962601e-01    6.989440e-03  2.185823e-03
1.891000e+09    7.074422e-03  2.252015e-03   -1.022467e-01 -9.945135e-01   -1.022465e-01 -9.945140e-01    7.074635e-03  2.251489e-03
1.910900e+09    7.162280e-03  2.314260e-03   -1.196771e-01 -9.924669e-01   -1.196769e-01 -9.924674e-01    7.162479e-03  2.313733e-03
1.930800e+09    7.252638e-03  2.372980e-03   -1.370600e-01 -9.901213e-01   -1.370599e-01 -9.901218e-01    7.252823e-03  2.372452e-03
1.950700e+09    7.345343e-03  2.428076e-03   -1.543913e-01 -9.874785e-01   -1.543911e-01 -9.874790e-01    7.345513e-03  2.427547e-03
1.970600e+09    7.440238e-03  2.479458e-03   -1.716665e-01 -9.845401e-01   -1.716663e-01 -9.845406e-01    7.440392e-03  2.478927e-03
1.990500e+09    7.537162e-03  2.527039e-03   -1.888816e-01 -9.813079e-01   -1.888814e-01 -9.813084e-01    7.537299e-03  2.526507e-03
2.010400e+09    7.635952e-03  2.570744e-03   -2.060325e-01 -9.777833e-01   -2.060323e-01 -9.777838e-01    7.636072e-03  2.570211e-03
2.030300e+09    7.736441e-03  2.610502e-03   -2.231153e-01 -9.739680e-01   -2.231151e-01 -9.739685e-01    7.736543e-03  2.609968e-03
2.050200e+09    7.838461e-03  2.646248e-03   -2.401259e-01 -9.698634e-01   -2.401256e-01 -9.698639e-01    7.838544e-03  2.645713e-03
2.070100e+09    7.941842e-03  2.677928e-03   -2.570604e-01 -9.654709e-01   -2.570602e-01 -9.654715e-01    7.941904e-03  2.677392e-03
2.090000e+09    8.046410e-03  2.705490e-03   -2.739150e-01 -9.607920e-01   -2.739148e-01 -9.607926e-01    8.046451e-03  2.704954e-03
2.109900e+09    8.151992e-03  2.728895e-03   -2.906858e-01 -9.558279e-01   -2.906856e-01 -9.558285e-01    8.152011e-03  2.728359e-03
2.129800e+09    8.258411e-03  2.748105e-03   -3.073689e-01 -9.505800e-01   -3.073687e-01 -9.505806e-01    8.258407e-03  2.747570e-03
2.149700e+09    8.365493e-03  2.763094e-03   -3.239605e-01 -9.450494e-01   -3.239602e-01 -9.450500e-01    8.365464e-03  2.762560e-03
2.169600e+09    8.473058e-03  2.773841e-03   -3.404565e-01 -9.392373e-01   -3.404562e-01 -9.392380e-01    8.473005e-03  2.773309e-03
2.189500e+09    8.580930e-03  2.780333e-03   -3.568530e-01 -9.331450e-01   -3.568528e-01 -9.331457e-01    8.580850e-03  2.779803e-03
2.209400e+09    8.688929e-03  2.782562e-03   -3.731461e-01 -9.267735e-01   -3.731458e-01 -9.267743e-01    8.688823e-03  2.782036e-03
2.229300e+09    8.796879e-03  2.780531e-03   -3.893315e-01 -9.201239e-01   -3.893313e-01 -9.201247e-01    8.796744e-03  2.780010e-03
2.249200e+09    8.904599e-03  2.774248e-03   -4.054053e-01 -9.131974e-01   -4.054051e-01 -9.131983e-01    8.904436e-03  2.773732e-03
2.269100e+09    9.011914e-03  2.763727e-03   -4.213631e-01 -9.059951e-01   -4.213629e-01 -9.059960e-01    9.011720e-03  2.763219e-03
2.289000e+09    9.118646e-03  2.748992e-03   -4.372007e-01 -8.985181e-01   -4.372005e-01 -8.985190e-01    9.118421e-03  2.748492e-03
2.308900e+09    9.224618e-03  2.730072e-03   -4.529136e-01 -8.907676e-01   -4.529135e-01 -8.907686e-01    9.224362e-03  2.729582e-03
2.328800e+09    9.329657e-03  2.707005e-03   -4.684975e-01 -8.827448e-01   -4.684974e-01 -8.827458e-01    9.329369e-03  2.706526e-03
2.348700e+09    9.433589e-03  2.679833e-03   -4.839478e-01 -8.744510e-01   -4.839477e-01 -8.744521e-01    9.433267e-03  2.679367e-03
2.368600e+09    9.536241e-03  2.648609e-03   -4.992597e-01 -8.658875e-01   -4.992597e-01 -8.658886e-01    9.535887e-03  2.648158e-03
2.388500e+09    9.637446e-03  2.613390e-03   -5.144287e-01 -8.570558e-01   -5.144287e-01 -8.570570e-01    9.637058e-03  2.612955e-03
2.408400e+09    9.737036e-03  2.574241e-03   -5.294498e-01 -8.479574e-01   -5.294498e-01 -8.479586e-01    9.736613e-03  2.573826e-03
2.428300e+09    9.834845e-03  2.531236e-03   -5.443182e-01 -8.385939e-01   -5.443183e-01 -8.385951e-01    9.834388e-03  2.530841e-03
2.448200e+09    9.930713e-03  2.484452e-03   -5.590290e-01 -8.289670e-01   -5.590291e-01 -8.289683e-01    9.930222e-03  2.484080e-03
2.468100e+09    1.002448e-02  2.433976e-03   -5.735771e-01 -8.190787e-01   -5.735773e-01 -8.190800e-01    1.002396e-02  2.433629e-03
2.488000e+09    1.011599e-02  2.379901e-03   -5.879574e-01 -8.089311e-01   -5.879577e-01 -8.089324e-01    1.011543e-02  2.379581e-03
2.507900e+09    1.020510e-02  2.322324e-03   -6.021648e-01 -7.985261e-01   -6.021651e-01 -7.985275e-01    1.020451e-02  2.322034e-03
2.527800e+09    1.029165e-02  2.261353e-03   -6.161942e-01 -7.878663e-01   -6.161946e-01 -7.878677e-01    1.029103e-02  2.261094e-03
2.547700e+09    1.037551e-02  2.197098e-03   -6.300404e-01 -7.769542e-01   -6.300408e-01 -7.769556e-01    1.037485e-02  2.196874e-03
2.567600e+09    1.045653e-02  2.129678e-03   -6.436981e-01 -7.657923e-01   -6.436986e-01 -7.657937e-01    1.045584e-02  2.129491e-03
2.587500e+09    1.053458e-02  2.059218e-03   -6.571622e-01 -7.543837e-01   -6.571628e-01 -7.543851e-01    1.053386e-02  2.059069e-03
2.607400e+09    1.060954e-02  1.985846e-03   -6.704274e-01 -7.427312e-01   -6.704281e-01 -7.427327e-01    1.060879e-02  1.985739e-03
2.627300e+09    1.068128e-02  1.909699e-03   -6.834887e-01 -7.308383e-01   -6.834894e-01 -7.308397e-01    1.068050e-02  1.909635e-03
2.647200e+09    1.074968e-02  1.830917e-03   -6.963408e-01 -7.187082e-01   -6.963417e-01 -7.187096e-01    1.074888e-02  1.830899e-03
2.667100e+09    1.081463e-02  1.749646e-03   -7.089788e-01 -7.063446e-01   -7.089798e-01 -7.063460e-01    1.081381e-02  1.749677e-03
2.687000e+09    1.087604e-02  1.666038e-03   -7.213977e-01 -6.937514e-01   -7.213987e-01 -6.937528e-01    1.087519e-02  1.666119e-03
2.706900e+09    1.093379e-02  1.580248e-03   -7.335924e-01 -6.809324e-01   -7.335935e-01 -6.809337e-01    1.093292e-02  1.580382e-03
2.726800e+09    1.098781e-02  1.492435e-03   -7.455582e-01 -6.678918e-01   -7.455594e-01 -6.678932e-01    1.098692e-02  1.492623e-03
2.746700e+09    1.103799e-02  1.402764e-03   -7.572903e-01 -6.546340e-01   -7.572916e-01 -6.546353e-01    1.103709e-02  1.403009e-03
2.766600e+09    1.108428e-02  1.311403e-03   -7.687842e-01 -6.411635e-01   -7.687856e-01 -6.411648e-01    1.108337e-02  1.311705e-03
2.786500e+09    1.112659e-02  1.218521e-03   -7.800354e-01 -6.274849e-01   -7.800368e-01 -6.274861e-01    1.112567e-02  1.218883e-03
2.806400e+09    1.116487e-02  1.124294e-03   -7.910395e-01 -6.136030e-01   -7.910410e-01 -6.136042e-01    1.116394e-02  1.124717e-03
2.826300e+09    1.119906e-02  1.028897e-03   -8.017923e-01 -5.995228e-01   -8.017939e-01 -5.995239e-01    1.119813e-02  1.029382e-03
2.846200e+09    1.122912e-02  9.325107e-04   -8.122899e-01 -5.852494e-01   -8.122915e-01 -5.852504e-01    1.122819e-02  9.330589e-04
2.866100e+09    1.125500e-02  8.353150e-04   -8.225283e-01 -5.707879e-01   -8.225300e-01 -5.707889e-01    1.125407e-02  8.359271e-04
2.886000e+09    1.127667e-02  7.374927e-04   -8.325038e-01 -5.561437e-01   -8.325056e-01 -5.561446e-01    1.127575e-02  7.381693e-04
2.905900e+09    1.129412e-02  6.392275e-04   -8.422129e-01 -5.413221e-01   -8.422148e-01 -5.413229e-01    1.129321e-02  6.399691e-04
