#   Hz   S  RI   R   50
! 
!  Microstrip line with via fence on Aisler 6 layer HD stackup
!  Line length = combLineTabbed6G_2xthru (54.2mm) - SMA_Rosenbergerv2 fixture (28.9mm) = 23.5mm
!  Substrate losses only
!
!  Paramter List:
!    lossySubstrate = 1, Flag that indicates if substrate losses were enabled
!    lossyCondSheet = 0, Flag that indicates if the zero thickness conducting sheet model was used
!    w50 = 0.65, Width of the 50Ohm line
!    w50gndfree = 1.225, Seperation between RF trace edges to GND planes
!    lineLength = 23.5, Length of the microstrip transmission line
!    portLength = 8,  
!    measPlaneShiftP1 = 8,  
!    measPlaneShiftP2 = 8,  
!    feedShift = 3.74741,  
!    numViasX = 55,  
!    pcbX = 39.5,  
!    pcbY = 25,  
!    stackupL01th = 0.04,  
!    stackupSub01th = 0.13626,  
!    stackupL02th = 0.035,  
!    stackupSub02th = 0.2,  
!    stackupL03th = 0.035,  
!    viaD03 = 0.3,  
!    viaCpD03 = 0.6,  
!    viaClearD03 = 1,  
!    viaPitch = 0.6,  
!
1.000000e+08    1.918707e-02 -4.493487e-03    9.961237e-01 -9.050314e-02    9.961236e-01 -9.050312e-02    1.918736e-02 -4.493531e-03
1.199000e+08    1.891372e-02 -5.356689e-03    9.942193e-01 -1.084207e-01    9.942192e-01 -1.084207e-01    1.891401e-02 -5.356742e-03
1.398000e+08    1.859312e-02 -6.203276e-03    9.919748e-01 -1.262884e-01    9.919747e-01 -1.262884e-01    1.859341e-02 -6.203338e-03
1.597000e+08    1.822635e-02 -7.030669e-03    9.893925e-01 -1.440986e-01    9.893924e-01 -1.440986e-01    1.822664e-02 -7.030738e-03
1.796000e+08    1.781465e-02 -7.836366e-03    9.864750e-01 -1.618435e-01    9.864749e-01 -1.618434e-01    1.781493e-02 -7.836443e-03
1.995000e+08    1.735939e-02 -8.617956e-03    9.832250e-01 -1.795156e-01    9.832250e-01 -1.795156e-01    1.735967e-02 -8.618041e-03
2.194000e+08    1.686209e-02 -9.373127e-03    9.796458e-01 -1.971077e-01    9.796457e-01 -1.971077e-01    1.686236e-02 -9.373219e-03
2.393000e+08    1.632438e-02 -1.009967e-02    9.757405e-01 -2.146128e-01    9.757405e-01 -2.146128e-01    1.632465e-02 -1.009977e-02
2.592000e+08    1.574803e-02 -1.079549e-02    9.715128e-01 -2.320242e-01    9.715128e-01 -2.320242e-01    1.574829e-02 -1.079559e-02
2.791000e+08    1.513491e-02 -1.145861e-02    9.669663e-01 -2.493353e-01    9.669663e-01 -2.493352e-01    1.513516e-02 -1.145872e-02
2.990000e+08    1.448698e-02 -1.208718e-02    9.621050e-01 -2.665398e-01    9.621050e-01 -2.665398e-01    1.448723e-02 -1.208730e-02
3.189000e+08    1.380631e-02 -1.267949e-02    9.569329e-01 -2.836319e-01    9.569329e-01 -2.836319e-01    1.380655e-02 -1.267961e-02
3.388000e+08    1.309504e-02 -1.323394e-02    9.514541e-01 -3.006058e-01    9.514541e-01 -3.006057e-01    1.309527e-02 -1.323407e-02
3.587000e+08    1.235539e-02 -1.374910e-02    9.456729e-01 -3.174561e-01    9.456729e-01 -3.174560e-01    1.235561e-02 -1.374924e-02
3.786000e+08    1.158963e-02 -1.422366e-02    9.395935e-01 -3.341776e-01    9.395935e-01 -3.341775e-01    1.158985e-02 -1.422380e-02
3.985000e+08    1.080010e-02 -1.465645e-02    9.332203e-01 -3.507654e-01    9.332203e-01 -3.507654e-01    1.080031e-02 -1.465659e-02
4.184000e+08    9.989173e-03 -1.504645e-02    9.265576e-01 -3.672151e-01    9.265576e-01 -3.672150e-01    9.989373e-03 -1.504660e-02
4.383000e+08    9.159247e-03 -1.539279e-02    9.196098e-01 -3.835220e-01    9.196098e-01 -3.835220e-01    9.159438e-03 -1.539294e-02
4.582000e+08    8.312756e-03 -1.569473e-02    9.123813e-01 -3.996822e-01    9.123813e-01 -3.996822e-01    8.312938e-03 -1.569488e-02
4.781000e+08    7.452144e-03 -1.595169e-02    9.048762e-01 -4.156917e-01    9.048762e-01 -4.156917e-01    7.452317e-03 -1.595184e-02
4.980000e+08    6.579860e-03 -1.616321e-02    8.970989e-01 -4.315469e-01    8.970989e-01 -4.315468e-01    6.580025e-03 -1.616336e-02
5.179000e+08    5.698355e-03 -1.632898e-02    8.890534e-01 -4.472441e-01    8.890534e-01 -4.472441e-01    5.698510e-03 -1.632913e-02
5.378000e+08    4.810065e-03 -1.644882e-02    8.807438e-01 -4.627802e-01    8.807439e-01 -4.627802e-01    4.810211e-03 -1.644898e-02
5.577000e+08    3.917409e-03 -1.652270e-02    8.721742e-01 -4.781519e-01    8.721742e-01 -4.781519e-01    3.917547e-03 -1.652285e-02
5.776000e+08    3.022784e-03 -1.655069e-02    8.633482e-01 -4.933562e-01    8.633483e-01 -4.933562e-01    3.022912e-03 -1.655084e-02
5.975000e+08    2.128551e-03 -1.653300e-02    8.542698e-01 -5.083903e-01    8.542698e-01 -5.083903e-01    2.128671e-03 -1.653316e-02
6.174000e+08    1.237036e-03 -1.646998e-02    8.449424e-01 -5.232513e-01    8.449424e-01 -5.232513e-01    1.237147e-03 -1.647013e-02
6.373000e+08    3.505202e-04 -1.636207e-02    8.353696e-01 -5.379365e-01    8.353696e-01 -5.379366e-01    3.506226e-04 -1.636222e-02
6.572000e+08   -5.287655e-04 -1.620982e-02    8.255547e-01 -5.524433e-01    8.255547e-01 -5.524434e-01   -5.286716e-04 -1.620998e-02
6.771000e+08   -1.398644e-03 -1.601392e-02    8.155010e-01 -5.667691e-01    8.155011e-01 -5.667692e-01   -1.398558e-03 -1.601407e-02
6.970000e+08   -2.256996e-03 -1.577514e-02    8.052117e-01 -5.809113e-01    8.052117e-01 -5.809114e-01   -2.256919e-03 -1.577528e-02
7.169000e+08   -3.101767e-03 -1.549433e-02    7.946897e-01 -5.948674e-01    7.946897e-01 -5.948674e-01   -3.101697e-03 -1.549448e-02
7.368000e+08   -3.930968e-03 -1.517248e-02    7.839379e-01 -6.086347e-01    7.839380e-01 -6.086347e-01   -3.930906e-03 -1.517262e-02
7.567000e+08   -4.742681e-03 -1.481063e-02    7.729592e-01 -6.222106e-01    7.729593e-01 -6.222107e-01   -4.742627e-03 -1.481076e-02
7.766000e+08   -5.535062e-03 -1.440991e-02    7.617563e-01 -6.355926e-01    7.617564e-01 -6.355927e-01   -5.535016e-03 -1.441004e-02
7.965000e+08   -6.306342e-03 -1.397154e-02    7.503319e-01 -6.487780e-01    7.503319e-01 -6.487780e-01   -6.306303e-03 -1.397167e-02
8.164000e+08   -7.054831e-03 -1.349681e-02    7.386885e-01 -6.617639e-01    7.386885e-01 -6.617639e-01   -7.054798e-03 -1.349694e-02
8.363000e+08   -7.778919e-03 -1.298707e-02    7.268287e-01 -6.745475e-01    7.268287e-01 -6.745476e-01   -7.778893e-03 -1.298719e-02
8.562000e+08   -8.477080e-03 -1.244374e-02    7.147550e-01 -6.871260e-01    7.147551e-01 -6.871261e-01   -8.477060e-03 -1.244385e-02
8.761000e+08   -9.147871e-03 -1.186829e-02    7.024699e-01 -6.994963e-01    7.024700e-01 -6.994964e-01   -9.147858e-03 -1.186840e-02
8.960000e+08   -9.789936e-03 -1.126225e-02    6.899760e-01 -7.116554e-01    6.899760e-01 -7.116555e-01   -9.789929e-03 -1.126236e-02
9.159000e+08   -1.040200e-02 -1.062721e-02    6.772756e-01 -7.236000e-01    6.772757e-01 -7.236001e-01   -1.040200e-02 -1.062731e-02
9.358000e+08   -1.098289e-02 -9.964789e-03    6.643715e-01 -7.353269e-01    6.643715e-01 -7.353270e-01   -1.098290e-02 -9.964885e-03
9.557000e+08   -1.153151e-02 -9.276645e-03    6.512661e-01 -7.468326e-01    6.512661e-01 -7.468327e-01   -1.153152e-02 -9.276736e-03
9.756000e+08   -1.204685e-02 -8.564480e-03    6.379621e-01 -7.581137e-01    6.379622e-01 -7.581138e-01   -1.204687e-02 -8.564565e-03
9.955000e+08   -1.252800e-02 -7.830021e-03    6.244624e-01 -7.691666e-01    6.244624e-01 -7.691666e-01   -1.252802e-02 -7.830101e-03
1.015400e+09   -1.297413e-02 -7.075025e-03    6.107697e-01 -7.799876e-01    6.107697e-01 -7.799876e-01   -1.297416e-02 -7.075099e-03
1.035300e+09   -1.338451e-02 -6.301268e-03    5.968870e-01 -7.905729e-01    5.968870e-01 -7.905730e-01   -1.338454e-02 -6.301337e-03
1.055200e+09   -1.375849e-02 -5.510546e-03    5.828174e-01 -8.009188e-01    5.828174e-01 -8.009189e-01   -1.375853e-02 -5.510610e-03
1.075100e+09   -1.409552e-02 -4.704668e-03    5.685642e-01 -8.110214e-01    5.685642e-01 -8.110215e-01   -1.409556e-02 -4.704726e-03
1.095000e+09   -1.439513e-02 -3.885451e-03    5.541307e-01 -8.208767e-01    5.541307e-01 -8.208768e-01   -1.439517e-02 -3.885504e-03
1.114900e+09   -1.465695e-02 -3.054717e-03    5.395205e-01 -8.304808e-01    5.395205e-01 -8.304809e-01   -1.465699e-02 -3.054765e-03
1.134800e+09   -1.488067e-02 -2.214292e-03    5.247374e-01 -8.398298e-01    5.247374e-01 -8.398298e-01   -1.488072e-02 -2.214334e-03
1.154700e+09   -1.506611e-02 -1.365996e-03    5.097852e-01 -8.489195e-01    5.097852e-01 -8.489196e-01   -1.506616e-02 -1.366033e-03
1.174600e+09   -1.521314e-02 -5.116436e-04    4.946680e-01 -8.577461e-01    4.946680e-01 -8.577462e-01   -1.521320e-02 -5.116747e-04
1.194500e+09   -1.532174e-02  3.469622e-04    4.793903e-01 -8.663056e-01    4.793902e-01 -8.663057e-01   -1.532180e-02  3.469365e-04
1.214400e+09   -1.539195e-02  1.208032e-03    4.639563e-01 -8.745941e-01    4.639563e-01 -8.745941e-01   -1.539201e-02  1.208012e-03
1.234300e+09   -1.542392e-02  2.069797e-03    4.483709e-01 -8.826077e-01    4.483709e-01 -8.826078e-01   -1.542398e-02  2.069782e-03
1.254200e+09   -1.541785e-02  2.930507e-03    4.326389e-01 -8.903428e-01    4.326389e-01 -8.903429e-01   -1.541791e-02  2.930497e-03
1.274100e+09   -1.537403e-02  3.788439e-03    4.167654e-01 -8.977956e-01    4.167654e-01 -8.977957e-01   -1.537410e-02  3.788435e-03
1.294000e+09   -1.529286e-02  4.641901e-03    4.007557e-01 -9.049626e-01    4.007557e-01 -9.049627e-01   -1.529293e-02  4.641902e-03
1.313900e+09   -1.517475e-02  5.489231e-03    3.846153e-01 -9.118404e-01    3.846153e-01 -9.118404e-01   -1.517482e-02  5.489238e-03
1.333800e+09   -1.502024e-02  6.328804e-03    3.683497e-01 -9.184257e-01    3.683497e-01 -9.184257e-01   -1.502032e-02  6.328815e-03
1.353700e+09   -1.482991e-02  7.159031e-03    3.519648e-01 -9.247154e-01    3.519649e-01 -9.247154e-01   -1.482999e-02  7.159049e-03
1.373600e+09   -1.460442e-02  7.978369e-03    3.354666e-01 -9.307066e-01    3.354666e-01 -9.307066e-01   -1.460450e-02  7.978392e-03
1.393500e+09   -1.434448e-02  8.785317e-03    3.188611e-01 -9.363965e-01    3.188611e-01 -9.363966e-01   -1.434456e-02  8.785345e-03
1.413400e+09   -1.405087e-02  9.578420e-03    3.021546e-01 -9.417826e-01    3.021546e-01 -9.417827e-01   -1.405096e-02  9.578454e-03
1.433300e+09   -1.372444e-02  1.035627e-02    2.853534e-01 -9.468626e-01    2.853534e-01 -9.468627e-01   -1.372453e-02  1.035631e-02
1.453200e+09   -1.336608e-02  1.111753e-02    2.684639e-01 -9.516344e-01    2.684640e-01 -9.516345e-01   -1.336617e-02  1.111757e-02
1.473100e+09   -1.297672e-02  1.186088e-02    2.514928e-01 -9.560961e-01    2.514929e-01 -9.560962e-01   -1.297682e-02  1.186093e-02
1.493000e+09   -1.255738e-02  1.258509e-02    2.344466e-01 -9.602460e-01    2.344467e-01 -9.602461e-01   -1.255748e-02  1.258515e-02
1.512900e+09   -1.210909e-02  1.328897e-02    2.173321e-01 -9.640828e-01    2.173321e-01 -9.640829e-01   -1.210919e-02  1.328903e-02
1.532800e+09   -1.163293e-02  1.397139e-02    2.001557e-01 -9.676053e-01    2.001558e-01 -9.676054e-01   -1.163303e-02  1.397146e-02
1.552700e+09   -1.113003e-02  1.463129e-02    1.829244e-01 -9.708124e-01    1.829244e-01 -9.708126e-01   -1.113013e-02  1.463136e-02
1.572600e+09   -1.060153e-02  1.526765e-02    1.656448e-01 -9.737037e-01    1.656448e-01 -9.737038e-01   -1.060164e-02  1.526773e-02
1.592500e+09   -1.004864e-02  1.587953e-02    1.483235e-01 -9.762786e-01    1.483236e-01 -9.762787e-01   -1.004875e-02  1.587961e-02
1.612400e+09   -9.472574e-03  1.646604e-02    1.309673e-01 -9.785368e-01    1.309674e-01 -9.785370e-01   -9.472682e-03  1.646613e-02
1.632300e+09   -8.874565e-03  1.702637e-02    1.135828e-01 -9.804785e-01    1.135829e-01 -9.804787e-01   -8.874676e-03  1.702647e-02
1.652200e+09   -8.255884e-03  1.755975e-02    9.617651e-02 -9.821038e-01    9.617655e-02 -9.821039e-01   -8.255996e-03  1.755985e-02
1.672100e+09   -7.617813e-03  1.806548e-02    7.875488e-02 -9.834131e-01    7.875492e-02 -9.834133e-01   -7.617927e-03  1.806559e-02
1.692000e+09   -6.961651e-03  1.854293e-02    6.132431e-02 -9.844071e-01    6.132435e-02 -9.844073e-01   -6.961767e-03  1.854305e-02
1.711900e+09   -6.288711e-03  1.899151e-02    4.389109e-02 -9.850867e-01    4.389113e-02 -9.850868e-01   -6.288829e-03  1.899164e-02
1.731800e+09   -5.600314e-03  1.941073e-02    2.646137e-02 -9.854527e-01    2.646141e-02 -9.854529e-01   -5.600433e-03  1.941087e-02
1.751700e+09   -4.897789e-03  1.980011e-02    9.041203e-03 -9.855064e-01    9.041239e-03 -9.855066e-01   -4.897909e-03  1.980026e-02
1.771600e+09   -4.182467e-03  2.015928e-02   -8.363492e-03 -9.852490e-01   -8.363459e-03 -9.852493e-01   -4.182588e-03  2.015943e-02
1.791500e+09   -3.455683e-03  2.048787e-02   -2.574693e-02 -9.846821e-01   -2.574691e-02 -9.846824e-01   -3.455805e-03  2.048804e-02
1.811400e+09   -2.718771e-03  2.078563e-02   -4.310348e-02 -9.838072e-01   -4.310345e-02 -9.838075e-01   -2.718894e-03  2.078580e-02
1.831300e+09   -1.973063e-03  2.105232e-02   -6.042763e-02 -9.826260e-01   -6.042761e-02 -9.826263e-01   -1.973185e-03  2.105249e-02
1.851200e+09   -1.219883e-03  2.128776e-02   -7.771401e-02 -9.811402e-01   -7.771400e-02 -9.811405e-01   -1.220006e-03  2.128795e-02
1.871100e+09   -4.605521e-04  2.149185e-02   -9.495742e-02 -9.793518e-01   -9.495741e-02 -9.793520e-01   -4.606749e-04  2.149205e-02
1.891000e+09    3.036189e-04  2.166451e-02   -1.121528e-01 -9.772625e-01   -1.121528e-01 -9.772628e-01    3.034965e-04  2.166472e-02
1.910900e+09    1.071329e-03  2.180574e-02   -1.292952e-01 -9.748744e-01   -1.292952e-01 -9.748747e-01    1.071207e-03  2.180595e-02
1.930800e+09    1.841289e-03  2.191556e-02   -1.463797e-01 -9.721895e-01   -1.463798e-01 -9.721898e-01    1.841169e-03  2.191578e-02
1.950700e+09    2.612223e-03  2.199405e-02   -1.634019e-01 -9.692099e-01   -1.634019e-01 -9.692102e-01    2.612103e-03  2.199429e-02
1.970600e+09    3.382866e-03  2.204135e-02   -1.803570e-01 -9.659376e-01   -1.803570e-01 -9.659379e-01    3.382749e-03  2.204159e-02
1.990500e+09    4.151974e-03  2.205762e-02   -1.972407e-01 -9.623746e-01   -1.972407e-01 -9.623749e-01    4.151858e-03  2.205788e-02
2.010400e+09    4.918313e-03  2.204309e-02   -2.140486e-01 -9.585231e-01   -2.140486e-01 -9.585234e-01    4.918200e-03  2.204335e-02
2.030300e+09    5.680671e-03  2.199801e-02   -2.307765e-01 -9.543851e-01   -2.307766e-01 -9.543854e-01    5.680561e-03  2.199828e-02
2.050200e+09    6.437851e-03  2.192268e-02   -2.474203e-01 -9.499626e-01   -2.474203e-01 -9.499629e-01    6.437744e-03  2.192297e-02
2.070100e+09    7.188675e-03  2.181745e-02   -2.639759e-01 -9.452576e-01   -2.639760e-01 -9.452579e-01    7.188572e-03  2.181775e-02
2.090000e+09    7.931987e-03  2.168270e-02   -2.804393e-01 -9.402722e-01   -2.804394e-01 -9.402725e-01    7.931887e-03  2.168300e-02
2.109900e+09    8.666646e-03  2.151885e-02   -2.968066e-01 -9.350082e-01   -2.968067e-01 -9.350086e-01    8.666551e-03  2.151916e-02
2.129800e+09    9.391538e-03  2.132635e-02   -3.130739e-01 -9.294677e-01   -3.130740e-01 -9.294681e-01    9.391447e-03  2.132667e-02
2.149700e+09    1.010557e-02  2.110570e-02   -3.292374e-01 -9.236526e-01   -3.292375e-01 -9.236529e-01    1.010548e-02  2.110603e-02
2.169600e+09    1.080765e-02  2.085743e-02   -3.452931e-01 -9.175646e-01   -3.452933e-01 -9.175649e-01    1.080757e-02  2.085778e-02
2.189500e+09    1.149675e-02  2.058211e-02   -3.612375e-01 -9.112056e-01   -3.612376e-01 -9.112060e-01    1.149668e-02  2.058247e-02
2.209400e+09    1.217184e-02  2.028035e-02   -3.770665e-01 -9.045776e-01   -3.770667e-01 -9.045779e-01    1.217177e-02  2.028071e-02
2.229300e+09    1.283190e-02  1.995277e-02   -3.927764e-01 -8.976821e-01   -3.927766e-01 -8.976825e-01    1.283184e-02  1.995315e-02
2.249200e+09    1.347596e-02  1.960005e-02   -4.083635e-01 -8.905211e-01   -4.083637e-01 -8.905215e-01    1.347591e-02  1.960044e-02
2.269100e+09    1.410307e-02  1.922289e-02   -4.238238e-01 -8.830963e-01   -4.238240e-01 -8.830966e-01    1.410303e-02  1.922329e-02
2.289000e+09    1.471230e-02  1.882203e-02   -4.391535e-01 -8.754094e-01   -4.391537e-01 -8.754098e-01    1.471226e-02  1.882244e-02
2.308900e+09    1.530275e-02  1.839824e-02   -4.543488e-01 -8.674622e-01   -4.543490e-01 -8.674626e-01    1.530272e-02  1.839866e-02
2.328800e+09    1.587354e-02  1.795232e-02   -4.694055e-01 -8.592565e-01   -4.694058e-01 -8.592569e-01    1.587353e-02  1.795274e-02
2.348700e+09    1.642384e-02  1.748510e-02   -4.843199e-01 -8.507941e-01   -4.843201e-01 -8.507945e-01    1.642383e-02  1.748553e-02
2.368600e+09    1.695283e-02  1.699744e-02   -4.990878e-01 -8.420768e-01   -4.990881e-01 -8.420771e-01    1.695284e-02  1.699788e-02
2.388500e+09    1.745974e-02  1.649025e-02   -5.137052e-01 -8.331064e-01   -5.137055e-01 -8.331068e-01    1.745975e-02  1.649070e-02
2.408400e+09    1.794380e-02  1.596443e-02   -5.281680e-01 -8.238849e-01   -5.281682e-01 -8.238852e-01    1.794383e-02  1.596489e-02
2.428300e+09    1.840431e-02  1.542095e-02   -5.424719e-01 -8.144142e-01   -5.424722e-01 -8.144146e-01    1.840435e-02  1.542142e-02
2.448200e+09    1.884059e-02  1.486079e-02   -5.566127e-01 -8.046964e-01   -5.566130e-01 -8.046967e-01    1.884064e-02  1.486127e-02
2.468100e+09    1.925199e-02  1.428496e-02   -5.705862e-01 -7.947335e-01   -5.705865e-01 -7.947339e-01    1.925206e-02  1.428544e-02
2.488000e+09    1.963791e-02  1.369448e-02   -5.843880e-01 -7.845278e-01   -5.843884e-01 -7.845281e-01    1.963799e-02  1.369497e-02
2.507900e+09    1.999778e-02  1.309043e-02   -5.980138e-01 -7.740816e-01   -5.980142e-01 -7.740819e-01    1.999787e-02  1.309092e-02
2.527800e+09    2.033107e-02  1.247388e-02   -6.114592e-01 -7.633972e-01   -6.114595e-01 -7.633975e-01    2.033118e-02  1.247439e-02
2.547700e+09    2.063731e-02  1.184596e-02   -6.247197e-01 -7.524771e-01   -6.247200e-01 -7.524774e-01    2.063742e-02  1.184646e-02
2.567600e+09    2.091603e-02  1.120777e-02   -6.377909e-01 -7.413240e-01   -6.377912e-01 -7.413243e-01    2.091617e-02  1.120829e-02
2.587500e+09    2.116686e-02  1.056049e-02   -6.506682e-01 -7.299407e-01   -6.506686e-01 -7.299410e-01    2.116701e-02  1.056101e-02
2.607400e+09    2.138944e-02  9.905280e-03   -6.633473e-01 -7.183299e-01   -6.633476e-01 -7.183302e-01    2.138960e-02  9.905803e-03
2.627300e+09    2.158346e-02  9.243325e-03   -6.758236e-01 -7.064948e-01   -6.758239e-01 -7.064951e-01    2.158364e-02  9.243852e-03
2.647200e+09    2.174868e-02  8.575831e-03   -6.880926e-01 -6.944385e-01   -6.880930e-01 -6.944388e-01    2.174887e-02  8.576361e-03
2.667100e+09    2.188488e-02  7.904013e-03   -7.001499e-01 -6.821643e-01   -7.001503e-01 -6.821646e-01    2.188508e-02  7.904547e-03
2.687000e+09    2.199190e-02  7.229101e-03   -7.119911e-01 -6.696757e-01   -7.119915e-01 -6.696760e-01    2.199213e-02  7.229637e-03
2.706900e+09    2.206966e-02  6.552333e-03   -7.236117e-01 -6.569762e-01   -7.236121e-01 -6.569765e-01    2.206990e-02  6.552870e-03
2.726800e+09    2.211809e-02  5.874952e-03   -7.350075e-01 -6.440697e-01   -7.350079e-01 -6.440699e-01    2.211834e-02  5.875491e-03
2.746700e+09    2.213719e-02  5.198208e-03   -7.461741e-01 -6.309600e-01   -7.461745e-01 -6.309602e-01    2.213747e-02  5.198748e-03
2.766600e+09    2.212704e-02  4.523352e-03   -7.571074e-01 -6.176511e-01   -7.571078e-01 -6.176514e-01    2.212733e-02  4.523893e-03
2.786500e+09    2.208773e-02  3.851637e-03   -7.678031e-01 -6.041474e-01   -7.678036e-01 -6.041477e-01    2.208804e-02  3.852177e-03
2.806400e+09    2.201944e-02  3.184310e-03   -7.782573e-01 -5.904531e-01   -7.782578e-01 -5.904534e-01    2.201977e-02  3.184849e-03
2.826300e+09    2.192238e-02  2.522614e-03   -7.884661e-01 -5.765727e-01   -7.884665e-01 -5.765730e-01    2.192273e-02  2.523151e-03
2.846200e+09    2.179684e-02  1.867783e-03   -7.984255e-01 -5.625109e-01   -7.984260e-01 -5.625111e-01    2.179720e-02  1.868319e-03
2.866100e+09    2.164315e-02  1.221043e-03   -8.081319e-01 -5.482723e-01   -8.081324e-01 -5.482725e-01    2.164352e-02  1.221576e-03
2.886000e+09    2.146168e-02  5.836011e-04   -8.175817e-01 -5.338619e-01   -8.175822e-01 -5.338621e-01    2.146208e-02  5.841308e-04
2.905900e+09    2.125289e-02 -4.334762e-05   -8.267714e-01 -5.192845e-01   -8.267719e-01 -5.192848e-01    2.125331e-02 -4.282188e-05
