#   Hz   S  RI   R   50
! 
!  Microstrip line with via fence on Aisler 6 layer HD stackup
!  Line length = combLineTabbed6G_2xthru (54.2mm) - SMA_Rosenbergerv2 fixture (28.9mm) = 23.5mm
!  Substrate losses only
!
!  Paramter List:
!    lossySubstrate = 1, Flag that indicates if substrate losses were enabled
!    lossyCondSheet = 0, Flag that indicates if the zero thickness conducting sheet model was used
!    w50 = 0.65, Width of the 50Ohm line
!    w50gndfree = 1.225, Seperation between RF trace edges to GND planes
!    lineLength = 23.5, Length of the microstrip transmission line
!    portLength = 8,  
!    measPlaneShiftP1 = 8,  
!    measPlaneShiftP2 = 8,  
!    feedShift = 3.74741,  
!    numViasX = 55,  
!    pcbX = 39.5,  
!    pcbY = 25,  
!    stackupL01th = 0.04,  
!    stackupSub01th = 0.13626,  
!    stackupL02th = 0.035,  
!    stackupSub02th = 0.2,  
!    stackupL03th = 0.035,  
!    viaD03 = 0.3,  
!    viaCpD03 = 0.6,  
!    viaClearD03 = 1,  
!    viaPitch = 0.6,  
!
1.000000e+08    1.662200e-02 -3.352426e-03    9.965705e-01 -9.013373e-02    9.965705e-01 -9.013374e-02    1.662243e-02 -3.352423e-03
1.199000e+08    1.641988e-02 -3.996878e-03    9.946951e-01 -1.079816e-01    9.946951e-01 -1.079816e-01    1.642032e-02 -3.996875e-03
1.398000e+08    1.618280e-02 -4.629169e-03    9.924846e-01 -1.257817e-01    9.924846e-01 -1.257817e-01    1.618323e-02 -4.629166e-03
1.597000e+08    1.591152e-02 -5.247409e-03    9.899410e-01 -1.435266e-01    9.899410e-01 -1.435266e-01    1.591196e-02 -5.247406e-03
1.796000e+08    1.560694e-02 -5.849762e-03    9.870667e-01 -1.612088e-01    9.870667e-01 -1.612088e-01    1.560738e-02 -5.849759e-03
1.995000e+08    1.527006e-02 -6.434457e-03    9.838643e-01 -1.788211e-01    9.838643e-01 -1.788211e-01    1.527050e-02 -6.434454e-03
2.194000e+08    1.490197e-02 -6.999792e-03    9.803368e-01 -1.963566e-01    9.803368e-01 -1.963566e-01    1.490241e-02 -6.999789e-03
2.393000e+08    1.450386e-02 -7.544141e-03    9.764871e-01 -2.138084e-01    9.764871e-01 -2.138084e-01    1.450430e-02 -7.544138e-03
2.592000e+08    1.407700e-02 -8.065957e-03    9.723185e-01 -2.311700e-01    9.723185e-01 -2.311700e-01    1.407744e-02 -8.065955e-03
2.791000e+08    1.362275e-02 -8.563782e-03    9.678346e-01 -2.484351e-01    9.678346e-01 -2.484351e-01    1.362319e-02 -8.563780e-03
2.990000e+08    1.314254e-02 -9.036245e-03    9.630390e-01 -2.655975e-01    9.630390e-01 -2.655975e-01    1.314298e-02 -9.036244e-03
3.189000e+08    1.263786e-02 -9.482070e-03    9.579353e-01 -2.826515e-01    9.579353e-01 -2.826515e-01    1.263831e-02 -9.482069e-03
3.388000e+08    1.211028e-02 -9.900077e-03    9.525275e-01 -2.995914e-01    9.525275e-01 -2.995914e-01    1.211073e-02 -9.900077e-03
3.587000e+08    1.156141e-02 -1.028919e-02    9.468195e-01 -3.164119e-01    9.468195e-01 -3.164119e-01    1.156185e-02 -1.028919e-02
3.786000e+08    1.099289e-02 -1.064842e-02    9.408153e-01 -3.331079e-01    9.408154e-01 -3.331079e-01    1.099334e-02 -1.064842e-02
3.985000e+08    1.040644e-02 -1.097689e-02    9.345191e-01 -3.496746e-01    9.345191e-01 -3.496746e-01    1.040689e-02 -1.097690e-02
4.184000e+08    9.803781e-03 -1.127384e-02    9.279348e-01 -3.661074e-01    9.279348e-01 -3.661074e-01    9.804229e-03 -1.127385e-02
4.383000e+08    9.186670e-03 -1.153859e-02    9.210665e-01 -3.824019e-01    9.210665e-01 -3.824019e-01    9.187119e-03 -1.153860e-02
4.582000e+08    8.556884e-03 -1.177058e-02    9.139184e-01 -3.985539e-01    9.139184e-01 -3.985539e-01    8.557332e-03 -1.177059e-02
4.781000e+08    7.916210e-03 -1.196933e-02    9.064945e-01 -4.145595e-01    9.064945e-01 -4.145595e-01    7.916659e-03 -1.196935e-02
4.980000e+08    7.266444e-03 -1.213450e-02    8.987987e-01 -4.304150e-01    8.987987e-01 -4.304150e-01    7.266893e-03 -1.213452e-02
5.179000e+08    6.609382e-03 -1.226582e-02    8.908351e-01 -4.461168e-01    8.908351e-01 -4.461168e-01    6.609831e-03 -1.226584e-02
5.378000e+08    5.946814e-03 -1.236313e-02    8.826073e-01 -4.616615e-01    8.826073e-01 -4.616615e-01    5.947262e-03 -1.236315e-02
5.577000e+08    5.280519e-03 -1.242637e-02    8.741193e-01 -4.770458e-01    8.741193e-01 -4.770458e-01    5.280967e-03 -1.242639e-02
5.776000e+08    4.612260e-03 -1.245556e-02    8.653746e-01 -4.922666e-01    8.653746e-01 -4.922667e-01    4.612708e-03 -1.245558e-02
5.975000e+08    3.943781e-03 -1.245083e-02    8.563770e-01 -5.073210e-01    8.563770e-01 -5.073211e-01    3.944227e-03 -1.245085e-02
6.174000e+08    3.276797e-03 -1.241238e-02    8.471297e-01 -5.222061e-01    8.471297e-01 -5.222061e-01    3.277242e-03 -1.241241e-02
6.373000e+08    2.612995e-03 -1.234052e-02    8.376362e-01 -5.369189e-01    8.376362e-01 -5.369189e-01    2.613439e-03 -1.234055e-02
6.572000e+08    1.954029e-03 -1.223562e-02    8.278997e-01 -5.514568e-01    8.278997e-01 -5.514568e-01    1.954472e-03 -1.223565e-02
6.771000e+08    1.301514e-03 -1.209814e-02    8.179234e-01 -5.658171e-01    8.179234e-01 -5.658171e-01    1.301955e-03 -1.209818e-02
6.970000e+08    6.570235e-04 -1.192863e-02    8.077103e-01 -5.799970e-01    8.077103e-01 -5.799970e-01    6.574626e-04 -1.192867e-02
7.169000e+08    2.208896e-05 -1.172768e-02    7.972634e-01 -5.939939e-01    7.972634e-01 -5.939939e-01    2.252585e-05 -1.172772e-02
7.368000e+08   -6.018069e-04 -1.149598e-02    7.865855e-01 -6.078051e-01    7.865855e-01 -6.078052e-01   -6.013724e-04 -1.149603e-02
7.567000e+08   -1.213230e-03 -1.123426e-02    7.756793e-01 -6.214280e-01    7.756793e-01 -6.214280e-01   -1.212799e-03 -1.123432e-02
7.766000e+08   -1.810799e-03 -1.094335e-02    7.645475e-01 -6.348597e-01    7.645475e-01 -6.348597e-01   -1.810371e-03 -1.094340e-02
7.965000e+08   -2.393187e-03 -1.062409e-02    7.531928e-01 -6.480976e-01    7.531928e-01 -6.480976e-01   -2.392761e-03 -1.062415e-02
8.164000e+08   -2.959120e-03 -1.027742e-02    7.416176e-01 -6.611387e-01    7.416176e-01 -6.611387e-01   -2.958698e-03 -1.027748e-02
8.363000e+08   -3.507385e-03 -9.904296e-03    7.298246e-01 -6.739802e-01    7.298246e-01 -6.739802e-01   -3.506967e-03 -9.904362e-03
8.562000e+08   -4.036827e-03 -9.505746e-03    7.178162e-01 -6.866192e-01    7.178162e-01 -6.866192e-01   -4.036413e-03 -9.505815e-03
8.761000e+08   -4.546351e-03 -9.082833e-03    7.055948e-01 -6.990524e-01    7.055948e-01 -6.990524e-01   -4.545941e-03 -9.082905e-03
8.960000e+08   -5.034924e-03 -8.636663e-03    6.931630e-01 -7.112769e-01    6.931630e-01 -7.112769e-01   -5.034518e-03 -8.636737e-03
9.159000e+08   -5.501574e-03 -8.168378e-03    6.805232e-01 -7.232894e-01    6.805232e-01 -7.232894e-01   -5.501172e-03 -8.168455e-03
9.358000e+08   -5.945393e-03 -7.679157e-03    6.676780e-01 -7.350866e-01    6.676780e-01 -7.350866e-01   -5.944997e-03 -7.679237e-03
9.557000e+08   -6.365539e-03 -7.170210e-03    6.546299e-01 -7.466650e-01    6.546300e-01 -7.466649e-01   -6.365148e-03 -7.170292e-03
9.756000e+08   -6.761232e-03 -6.642774e-03    6.413816e-01 -7.580211e-01    6.413816e-01 -7.580211e-01   -6.760847e-03 -6.642858e-03
9.955000e+08   -7.131758e-03 -6.098110e-03    6.279358e-01 -7.691514e-01    6.279358e-01 -7.691514e-01   -7.131378e-03 -6.098196e-03
1.015400e+09   -7.476467e-03 -5.537503e-03    6.142952e-01 -7.800521e-01    6.142952e-01 -7.800521e-01   -7.476092e-03 -5.537591e-03
1.035300e+09   -7.794776e-03 -4.962255e-03    6.004628e-01 -7.907196e-01    6.004629e-01 -7.907196e-01   -7.794407e-03 -4.962344e-03
1.055200e+09   -8.086166e-03 -4.373684e-03    5.864417e-01 -8.011500e-01    5.864417e-01 -8.011500e-01   -8.085804e-03 -4.373774e-03
1.075100e+09   -8.350186e-03 -3.773118e-03    5.722349e-01 -8.113394e-01    5.722350e-01 -8.113394e-01   -8.349829e-03 -3.773210e-03
1.095000e+09   -8.586446e-03 -3.161898e-03    5.578459e-01 -8.212840e-01    5.578459e-01 -8.212839e-01   -8.586096e-03 -3.161991e-03
1.114900e+09   -8.794625e-03 -2.541369e-03    5.432780e-01 -8.309796e-01    5.432780e-01 -8.309796e-01   -8.794281e-03 -2.541462e-03
1.134800e+09   -8.974464e-03 -1.912880e-03    5.285350e-01 -8.404224e-01    5.285350e-01 -8.404224e-01   -8.974128e-03 -1.912973e-03
1.154700e+09   -9.125771e-03 -1.277779e-03    5.136205e-01 -8.496084e-01    5.136206e-01 -8.496084e-01   -9.125441e-03 -1.277872e-03
1.174600e+09   -9.248414e-03 -6.374136e-04    4.985387e-01 -8.585335e-01    4.985388e-01 -8.585335e-01   -9.248091e-03 -6.375067e-04
1.194500e+09   -9.342327e-03  6.875075e-06    4.832938e-01 -8.671939e-01    4.832938e-01 -8.671939e-01   -9.342010e-03  6.782489e-06
1.214400e+09   -9.407503e-03  6.537537e-04    4.678899e-01 -8.755855e-01    4.678900e-01 -8.755855e-01   -9.407194e-03  6.536620e-04
1.234300e+09   -9.444000e-03  1.301900e-03    4.523319e-01 -8.837045e-01    4.523320e-01 -8.837045e-01   -9.443698e-03  1.301809e-03
1.254200e+09   -9.451933e-03  1.950005e-03    4.366243e-01 -8.915471e-01    4.366244e-01 -8.915470e-01   -9.451638e-03  1.949916e-03
1.274100e+09   -9.431477e-03  2.596777e-03    4.207721e-01 -8.991095e-01    4.207722e-01 -8.991095e-01   -9.431189e-03  2.596690e-03
1.294000e+09   -9.382863e-03  3.240942e-03    4.047806e-01 -9.063882e-01    4.047807e-01 -9.063881e-01   -9.382582e-03  3.240857e-03
1.313900e+09   -9.306382e-03  3.881247e-03    3.886549e-01 -9.133796e-01    3.886550e-01 -9.133795e-01   -9.306108e-03  3.881164e-03
1.333800e+09   -9.202375e-03  4.516465e-03    3.724006e-01 -9.200803e-01    3.724007e-01 -9.200803e-01   -9.202108e-03  4.516384e-03
1.353700e+09   -9.071240e-03  5.145391e-03    3.560233e-01 -9.264872e-01    3.560234e-01 -9.264872e-01   -9.070980e-03  5.145314e-03
1.373600e+09   -8.913423e-03  5.766853e-03    3.395289e-01 -9.325972e-01    3.395290e-01 -9.325971e-01   -8.913170e-03  5.766779e-03
1.393500e+09   -8.729422e-03  6.379707e-03    3.229234e-01 -9.384073e-01    3.229235e-01 -9.384073e-01   -8.729176e-03  6.379637e-03
1.413400e+09   -8.519781e-03  6.982842e-03    3.062127e-01 -9.439150e-01    3.062129e-01 -9.439150e-01   -8.519541e-03  6.982776e-03
1.433300e+09   -8.285090e-03  7.575181e-03    2.894033e-01 -9.491176e-01    2.894035e-01 -9.491177e-01   -8.284857e-03  7.575119e-03
1.453200e+09   -8.025982e-03  8.155684e-03    2.725015e-01 -9.540130e-01    2.725016e-01 -9.540131e-01   -8.025755e-03  8.155626e-03
1.473100e+09   -7.743131e-03  8.723348e-03    2.555136e-01 -9.585991e-01    2.555138e-01 -9.585991e-01   -7.742910e-03  8.723295e-03
1.493000e+09   -7.437250e-03  9.277211e-03    2.384462e-01 -9.628739e-01    2.384464e-01 -9.628740e-01   -7.437035e-03  9.277163e-03
1.512900e+09   -7.109088e-03  9.816349e-03    2.213060e-01 -9.668360e-01    2.213061e-01 -9.668360e-01   -7.108879e-03  9.816307e-03
1.532800e+09   -6.759429e-03  1.033988e-02    2.040994e-01 -9.704838e-01    2.040996e-01 -9.704838e-01   -6.759225e-03  1.033985e-02
1.552700e+09   -6.389087e-03  1.084698e-02    1.868334e-01 -9.738163e-01    1.868336e-01 -9.738163e-01   -6.388889e-03  1.084694e-02
1.572600e+09   -5.998907e-03  1.133683e-02    1.695144e-01 -9.768325e-01    1.695146e-01 -9.768325e-01   -5.998713e-03  1.133681e-02
1.592500e+09   -5.589758e-03  1.180871e-02    1.521493e-01 -9.795317e-01    1.521495e-01 -9.795318e-01   -5.589569e-03  1.180869e-02
1.612400e+09   -5.162536e-03  1.226189e-02    1.347446e-01 -9.819136e-01    1.347448e-01 -9.819137e-01   -5.162352e-03  1.226188e-02
1.632300e+09   -4.718157e-03  1.269573e-02    1.173071e-01 -9.839778e-01    1.173074e-01 -9.839779e-01   -4.717977e-03  1.269573e-02
1.652200e+09   -4.257557e-03  1.310962e-02    9.984340e-02 -9.857244e-01    9.984362e-02 -9.857245e-01   -4.257381e-03  1.310962e-02
1.672100e+09   -3.781689e-03  1.350298e-02    8.235995e-02 -9.871535e-01    8.236016e-02 -9.871537e-01   -3.781517e-03  1.350299e-02
1.692000e+09   -3.291520e-03  1.387531e-02    6.486326e-02 -9.882656e-01    6.486348e-02 -9.882658e-01   -3.291350e-03  1.387532e-02
1.711900e+09   -2.788028e-03  1.422612e-02    4.735972e-02 -9.890614e-01    4.735993e-02 -9.890615e-01   -2.787862e-03  1.422614e-02
1.731800e+09   -2.272204e-03  1.455498e-02    2.985561e-02 -9.895415e-01    2.985582e-02 -9.895417e-01   -2.272041e-03  1.455501e-02
1.751700e+09   -1.745045e-03  1.486153e-02    1.235711e-02 -9.897070e-01    1.235732e-02 -9.897072e-01   -1.744884e-03  1.486157e-02
1.771600e+09   -1.207553e-03  1.514541e-02   -5.129695e-03 -9.895590e-01   -5.129487e-03 -9.895592e-01   -1.207394e-03  1.514546e-02
1.791500e+09   -6.607361e-04  1.540634e-02   -2.259887e-02 -9.890987e-01   -2.259867e-02 -9.890990e-01   -6.605788e-04  1.540640e-02
1.811400e+09   -1.056018e-04  1.564407e-02   -4.004460e-02 -9.883277e-01   -4.004440e-02 -9.883280e-01   -1.054458e-04  1.564413e-02
1.831300e+09    4.568408e-04  1.585839e-02   -5.746120e-02 -9.872474e-01   -5.746101e-02 -9.872477e-01    4.569958e-04  1.585846e-02
1.851200e+09    1.025585e-03  1.604914e-02   -7.484312e-02 -9.858596e-01   -7.484293e-02 -9.858599e-01    1.025739e-03  1.604922e-02
1.871100e+09    1.599626e-03  1.621620e-02   -9.218494e-02 -9.841659e-01   -9.218476e-02 -9.841662e-01    1.599780e-03  1.621628e-02
1.891000e+09    2.177965e-03  1.635948e-02   -1.094814e-01 -9.821682e-01   -1.094812e-01 -9.821685e-01    2.178119e-03  1.635957e-02
1.910900e+09    2.759608e-03  1.647894e-02   -1.267273e-01 -9.798684e-01   -1.267272e-01 -9.798688e-01    2.759763e-03  1.647905e-02
1.930800e+09    3.343570e-03  1.657459e-02   -1.439178e-01 -9.772685e-01   -1.439176e-01 -9.772689e-01    3.343726e-03  1.657469e-02
1.950700e+09    3.928874e-03  1.664644e-02   -1.610478e-01 -9.743706e-01   -1.610477e-01 -9.743709e-01    3.929030e-03  1.664656e-02
1.970600e+09    4.514551e-03  1.669458e-02   -1.781128e-01 -9.711765e-01   -1.781126e-01 -9.711769e-01    4.514708e-03  1.669470e-02
1.990500e+09    5.099644e-03  1.671910e-02   -1.951079e-01 -9.676885e-01   -1.951078e-01 -9.676889e-01    5.099803e-03  1.671923e-02
2.010400e+09    5.683207e-03  1.672016e-02   -2.120289e-01 -9.639086e-01   -2.120288e-01 -9.639090e-01    5.683368e-03  1.672029e-02
2.030300e+09    6.264307e-03  1.669791e-02   -2.288711e-01 -9.598390e-01   -2.288710e-01 -9.598394e-01    6.264470e-03  1.669806e-02
2.050200e+09    6.842023e-03  1.665258e-02   -2.456304e-01 -9.554816e-01   -2.456303e-01 -9.554820e-01    6.842189e-03  1.665274e-02
2.070100e+09    7.415449e-03  1.658440e-02   -2.623025e-01 -9.508386e-01   -2.623024e-01 -9.508390e-01    7.415618e-03  1.658457e-02
2.090000e+09    7.983693e-03  1.649365e-02   -2.788833e-01 -9.459121e-01   -2.788832e-01 -9.459125e-01    7.983866e-03  1.649382e-02
2.109900e+09    8.545879e-03  1.638061e-02   -2.953687e-01 -9.407041e-01   -2.953687e-01 -9.407045e-01    8.546055e-03  1.638079e-02
2.129800e+09    9.101144e-03  1.624564e-02   -3.117547e-01 -9.352166e-01   -3.117547e-01 -9.352171e-01    9.101324e-03  1.624582e-02
2.149700e+09    9.648645e-03  1.608907e-02   -3.280374e-01 -9.294517e-01   -3.280374e-01 -9.294522e-01    9.648828e-03  1.608926e-02
2.169600e+09    1.018755e-02  1.591131e-02   -3.442129e-01 -9.234113e-01   -3.442129e-01 -9.234118e-01    1.018774e-02  1.591151e-02
2.189500e+09    1.071706e-02  1.571278e-02   -3.602773e-01 -9.170974e-01   -3.602773e-01 -9.170979e-01    1.071725e-02  1.571298e-02
2.209400e+09    1.123637e-02  1.549390e-02   -3.762267e-01 -9.105119e-01   -3.762268e-01 -9.105124e-01    1.123656e-02  1.549411e-02
2.229300e+09    1.174471e-02  1.525516e-02   -3.920573e-01 -9.036568e-01   -3.920574e-01 -9.036572e-01    1.174491e-02  1.525538e-02
2.249200e+09    1.224132e-02  1.499705e-02   -4.077653e-01 -8.965338e-01   -4.077654e-01 -8.965343e-01    1.224153e-02  1.499727e-02
2.269100e+09    1.272547e-02  1.472010e-02   -4.233468e-01 -8.891450e-01   -4.233469e-01 -8.891454e-01    1.272569e-02  1.472032e-02
2.289000e+09    1.319645e-02  1.442484e-02   -4.387980e-01 -8.814920e-01   -4.387981e-01 -8.814925e-01    1.319667e-02  1.442507e-02
2.308900e+09    1.365356e-02  1.411186e-02   -4.541149e-01 -8.735769e-01   -4.541150e-01 -8.735774e-01    1.365378e-02  1.411210e-02
2.328800e+09    1.409612e-02  1.378175e-02   -4.692938e-01 -8.654015e-01   -4.692939e-01 -8.654020e-01    1.409635e-02  1.378199e-02
2.348700e+09    1.452350e-02  1.343513e-02   -4.843306e-01 -8.569676e-01   -4.843307e-01 -8.569681e-01    1.452373e-02  1.343538e-02
2.368600e+09    1.493505e-02  1.307264e-02   -4.992214e-01 -8.482771e-01   -4.992216e-01 -8.482776e-01    1.493529e-02  1.307289e-02
2.388500e+09    1.533017e-02  1.269496e-02   -5.139622e-01 -8.393320e-01   -5.139624e-01 -8.393325e-01    1.533042e-02  1.269521e-02
2.408400e+09    1.570829e-02  1.230276e-02   -5.285490e-01 -8.301342e-01   -5.285492e-01 -8.301347e-01    1.570855e-02  1.230302e-02
2.428300e+09    1.606885e-02  1.189676e-02   -5.429776e-01 -8.206857e-01   -5.429778e-01 -8.206862e-01    1.606911e-02  1.189703e-02
2.448200e+09    1.641132e-02  1.147770e-02   -5.572439e-01 -8.109885e-01   -5.572441e-01 -8.109890e-01    1.641159e-02  1.147797e-02
2.468100e+09    1.673521e-02  1.104632e-02   -5.713437e-01 -8.010448e-01   -5.713439e-01 -8.010453e-01    1.673548e-02  1.104659e-02
2.488000e+09    1.704003e-02  1.060340e-02   -5.852728e-01 -7.908567e-01   -5.852731e-01 -7.908572e-01    1.704032e-02  1.060368e-02
2.507900e+09    1.732535e-02  1.014974e-02   -5.990270e-01 -7.804265e-01   -5.990272e-01 -7.804270e-01    1.732564e-02  1.015001e-02
2.527800e+09    1.759075e-02  9.686131e-03   -6.126018e-01 -7.697566e-01   -6.126021e-01 -7.697570e-01    1.759105e-02  9.686411e-03
2.547700e+09    1.783585e-02  9.213415e-03   -6.259931e-01 -7.588493e-01   -6.259934e-01 -7.588497e-01    1.783616e-02  9.213698e-03
2.567600e+09    1.806029e-02  8.732435e-03   -6.391963e-01 -7.477072e-01   -6.391966e-01 -7.477077e-01    1.806061e-02  8.732720e-03
2.587500e+09    1.826377e-02  8.244050e-03   -6.522072e-01 -7.363331e-01   -6.522075e-01 -7.363335e-01    1.826409e-02  8.244338e-03
2.607400e+09    1.844599e-02  7.749137e-03   -6.650212e-01 -7.247295e-01   -6.650215e-01 -7.247300e-01    1.844632e-02  7.749427e-03
2.627300e+09    1.860670e-02  7.248583e-03   -6.776340e-01 -7.128996e-01   -6.776344e-01 -7.129000e-01    1.860704e-02  7.248875e-03
2.647200e+09    1.874569e-02  6.743290e-03   -6.900412e-01 -7.008462e-01   -6.900415e-01 -7.008466e-01    1.874605e-02  6.743584e-03
2.667100e+09    1.886279e-02  6.234170e-03   -7.022383e-01 -6.885727e-01   -7.022386e-01 -6.885731e-01    1.886315e-02  6.234465e-03
2.687000e+09    1.895785e-02  5.722143e-03   -7.142209e-01 -6.760821e-01   -7.142212e-01 -6.760825e-01    1.895822e-02  5.722439e-03
2.706900e+09    1.903077e-02  5.208137e-03   -7.259846e-01 -6.633781e-01   -7.259849e-01 -6.633785e-01    1.903115e-02  5.208434e-03
2.726800e+09    1.908149e-02  4.693089e-03   -7.375251e-01 -6.504642e-01   -7.375255e-01 -6.504646e-01    1.908188e-02  4.693387e-03
2.746700e+09    1.910998e-02  4.177938e-03   -7.488381e-01 -6.373442e-01   -7.488384e-01 -6.373446e-01    1.911038e-02  4.178236e-03
2.766600e+09    1.911626e-02  3.663626e-03   -7.599193e-01 -6.240219e-01   -7.599197e-01 -6.240222e-01    1.911667e-02  3.663924e-03
2.786500e+09    1.910038e-02  3.151098e-03   -7.707645e-01 -6.105013e-01   -7.707649e-01 -6.105017e-01    1.910080e-02  3.151396e-03
2.806400e+09    1.906245e-02  2.641295e-03   -7.813697e-01 -5.967867e-01   -7.813701e-01 -5.967870e-01    1.906288e-02  2.641593e-03
2.826300e+09    1.900260e-02  2.135160e-03   -7.917307e-01 -5.828823e-01   -7.917311e-01 -5.828826e-01    1.900304e-02  2.135456e-03
2.846200e+09    1.892100e-02  1.633626e-03   -8.018437e-01 -5.687925e-01   -8.018441e-01 -5.687929e-01    1.892145e-02  1.633922e-03
2.866100e+09    1.881789e-02  1.137624e-03   -8.117048e-01 -5.545221e-01   -8.117052e-01 -5.545224e-01    1.881835e-02  1.137919e-03
2.886000e+09    1.869352e-02  6.480747e-04   -8.213102e-01 -5.400756e-01   -8.213106e-01 -5.400760e-01    1.869399e-02  6.483672e-04
2.905900e+09    1.854819e-02  1.658874e-04   -8.306563e-01 -5.254579e-01   -8.306568e-01 -5.254583e-01    1.854868e-02  1.661778e-04
