!Keysight Technologies,N5242B,MY48220591,A.15.75.19
!Date: Wednesday, September 06, 2023 15:31:00
!Correction: S11(C  2-Port  ) 
!S21(C  2-Port  ) 
!S12(C  2-Port  ) 
!S22(C  2-Port  ) 
!S2P File: Measurements: S11, S21, S12, S22:
# Hz S  RI   R 50
10000000 -9.0450048e-005 0.0048573203 0.99735326 -0.031801701 0.99771953 -0.032338232 0.00045612804 0.0064295717
20000000 0.0020816601 -0.00016859424 0.99705744 -0.06067127 0.99658036 -0.060754389 0.0039756247 7.543189e-005
30000000 0.00043520654 -0.00064731087 0.99396217 -0.090122588 0.99382418 -0.090247825 0.00090495829 -0.00080229825
40000000 -0.00063560723 0.0010948197 0.9906795 -0.11980376 0.9905805 -0.11971295 -0.00023094204 0.0010363002
50000000 0.00025126571 0.0021450727 0.98604071 -0.14913693 0.98585165 -0.14925486 0.00062591664 0.0020607964
60000000 0.001051279 0.0021608488 0.98089582 -0.17811146 0.98076552 -0.17823294 0.0015921078 0.002080403
70000000 0.0011912938 0.0015488026 0.97464442 -0.20703059 0.97448015 -0.20692262 0.0020316413 0.0014322691
80000000 0.00072089431 0.001470416 0.9679364 -0.23555836 0.9675591 -0.23554054 0.0014995992 0.0015496252
90000000 0.00024294804 0.0020395201 0.96023571 -0.26424161 0.95991963 -0.26414877 0.0010922651 0.0017444544
100000000 0.0008292151 0.0026143314 0.95153153 -0.29248297 0.95133674 -0.29228354 0.0011616416 0.0024674893
110000000 0.001470777 0.002634821 0.94211602 -0.32020867 0.94184434 -0.32024121 0.0016452265 0.0028434773
120000000 0.0015897111 0.0024901801 0.93194741 -0.34773827 0.93171018 -0.34771743 0.0020922367 0.0026194013
130000000 0.0013580122 0.0024382151 0.92106128 -0.37491933 0.92076761 -0.37478867 0.0019328012 0.0023824975
140000000 0.0011763792 0.0026371796 0.90946454 -0.4016487 0.90906441 -0.40150112 0.001749791 0.0023866952
150000000 0.0014345271 0.0029950512 0.89695799 -0.42807072 0.89668071 -0.42796439 0.00166606 0.002815431
160000000 0.0016101552 0.0029501575 0.88376033 -0.45412359 0.88336527 -0.4540152 0.0020878538 0.0030032645
170000000 0.0016838516 0.0028022218 0.86976206 -0.47964007 0.86956567 -0.47947302 0.0023861651 0.0030471811
180000000 0.0017469949 0.0027610897 0.85511506 -0.50488567 0.85477519 -0.50456673 0.0024941387 0.0027843518
190000000 0.0017731016 0.0030227662 0.83971596 -0.52962506 0.83935207 -0.52935725 0.002413562 0.0027877535
200000000 0.0018494413 0.0032809442 0.82347804 -0.55381703 0.82324147 -0.55355614 0.002437562 0.003293809
210000000 0.0022910354 0.0034118644 0.8065989 -0.57752627 0.80625671 -0.577326 0.0029247813 0.0034748595
220000000 0.0025199365 0.0035023643 0.78897691 -0.60085589 0.78873956 -0.60067755 0.0030562351 0.0037047095
230000000 0.0028421581 0.0034594678 0.77075011 -0.62358928 0.77054495 -0.62331545 0.0034887602 0.0035782754
240000000 0.0028078242 0.0038046697 0.75187397 -0.64592135 0.75172794 -0.64550221 0.0035392987 0.0034539818
250000000 0.0030539129 0.0041310759 0.7325235 -0.66727394 0.73232567 -0.66722512 0.0035472694 0.0036746101
260000000 0.0034825623 0.0039483225 0.71234292 -0.68824381 0.71220666 -0.68816286 0.0034949498 0.0038188295
270000000 0.0037813119 0.0039233202 0.69156873 -0.70860082 0.69152117 -0.70829499 0.0038998509 0.0040223585
280000000 0.0037804851 0.0039243139 0.67054188 -0.72820538 0.67042518 -0.72795367 0.0043073185 0.0040633027
290000000 0.0040164567 0.0038390162 0.64876229 -0.74714786 0.64874846 -0.74714303 0.0041756695 0.0038531555
300000000 0.0042280713 0.0038989137 0.62661552 -0.76568997 0.62643266 -0.76526737 0.004314187 0.0038479932
310000000 0.0045151203 0.0038718088 0.60376823 -0.78338301 0.60355198 -0.78325784 0.0045702448 0.0043216534
320000000 0.0051350389 0.0039714137 0.58042175 -0.80051357 0.58016467 -0.80020869 0.0047727874 0.0045871572
330000000 0.0052664834 0.0037469757 0.55660295 -0.81683761 0.55626595 -0.81685579 0.0052128714 0.0045554806
340000000 0.0056607299 0.0034731505 0.53210908 -0.83255732 0.53204697 -0.83232152 0.0055528586 0.0048207766
350000000 0.0058855838 0.0035549412 0.50757921 -0.84766155 0.50721991 -0.84742373 0.0057184109 0.0045670094
360000000 0.0063375575 0.0035066146 0.48234725 -0.86180079 0.48217681 -0.86163175 0.0057688118 0.00475966
370000000 0.0065912502 0.003421898 0.4568283 -0.8753165 0.45664161 -0.87505698 0.0062078768 0.0050412286
380000000 0.0071104956 0.0032030921 0.43073165 -0.88814127 0.43072453 -0.8878516 0.0063286433 0.00487926
390000000 0.0071277525 0.003064807 0.40463483 -0.90012395 0.40443298 -0.89965576 0.0066601275 0.0047046877
400000000 0.0071647698 0.0028545409 0.37789986 -0.91128749 0.37791273 -0.91089416 0.0067562247 0.0043920777
410000000 0.0075273011 0.002825591 0.35096204 -0.92155784 0.35078192 -0.92127633 0.00675203 0.004216386
420000000 0.0077091623 0.002493395 0.32391879 -0.93115425 0.3237175 -0.93079323 0.0070089479 0.0041013006
430000000 0.0075193089 0.0023562345 0.2964035 -0.94000638 0.29634696 -0.93971092 0.0072936267 0.0039784354
440000000 0.0076527717 0.0023133685 0.26885524 -0.94791955 0.26862711 -0.94766998 0.00727221 0.0038521457
450000000 0.0074203848 0.0018935371 0.24087438 -0.9551425 0.24078223 -0.95490861 0.0073272316 0.0035943573
460000000 0.0074681151 0.0021152822 0.21268922 -0.96147066 0.21272013 -0.96131009 0.0070102406 0.0034513073
470000000 0.0073369863 0.0018527417 0.18458781 -0.96701503 0.1845516 -0.96702135 0.0069077979 0.0030280775
480000000 0.0071974159 0.0017385033 0.15627405 -0.97171795 0.15617815 -0.97150636 0.0070244572 0.003003316
490000000 0.0069630756 0.0015907334 0.12772357 -0.9756512 0.12770051 -0.97528863 0.0068152305 0.0027065589
500000000 0.0068143983 0.0013972088 0.099300355 -0.9787569 0.099035978 -0.97833794 0.0068564573 0.0025602158
510000000 0.0070147533 0.0010625359 0.070505768 -0.98089051 0.070408791 -0.98072582 0.0067431009 0.0022505797
520000000 0.0066901487 0.00092661183 0.041827925 -0.98233402 0.041814353 -0.98200101 0.0067353626 0.0023461261
530000000 0.0068801641 0.00070590293 0.013218194 -0.98291183 0.012999743 -0.98248363 0.0069195256 0.0023147357
540000000 0.0067996364 0.00026876875 -0.015377969 -0.98248988 -0.015670598 -0.98222053 0.0068076565 0.0021289126
550000000 0.0070939763 0.00028046727 -0.044198137 -0.98139322 -0.044288006 -0.98121148 0.0071641179 0.0019796311
560000000 0.0069774282 -0.00011650589 -0.072790205 -0.97934151 -0.072838068 -0.97895086 0.0073653385 0.0017926448
570000000 0.0073701185 -0.00018518069 -0.10123324 -0.97658443 -0.10132033 -0.97635305 0.0074781813 0.0016745693
580000000 0.0076932623 -0.00037632568 -0.1298189 -0.97277135 -0.12976332 -0.97245318 0.0077753793 0.00161776
590000000 0.0077967932 -0.00074376003 -0.15792257 -0.96845794 -0.1581744 -0.96813941 0.0082894005 0.0017329846
600000000 0.0079466589 -0.0010238492 -0.1861538 -0.96301866 -0.18610394 -0.96282631 0.0084064733 0.0013488791
610000000 0.0081616491 -0.0011749619 -0.21403536 -0.95708221 -0.21411975 -0.95673257 0.0087607373 0.00090866617
620000000 0.0083175264 -0.0013510599 -0.24191451 -0.95027339 -0.24184817 -0.94979686 0.0088205077 0.00064297672
630000000 0.0084656235 -0.001886703 -0.26930523 -0.94220853 -0.26942083 -0.94212896 0.009063323 0.00033103791
640000000 0.0085193124 -0.0019658133 -0.2965821 -0.93373114 -0.29665914 -0.93359649 0.0092146043 0.00017394568
650000000 0.0086216303 -0.0020029144 -0.32372609 -0.9245168 -0.32358769 -0.9241004 0.0093123242 -0.00014558854
660000000 0.0087533202 -0.0023694381 -0.35026103 -0.91427058 -0.35031626 -0.91406918 0.0093921572 -0.00035370397
670000000 0.0084876316 -0.0024313424 -0.37671292 -0.90355289 -0.3768433 -0.90344083 0.0097766714 -0.00054180413
680000000 0.0086069927 -0.0027469208 -0.4027313 -0.89198303 -0.40281028 -0.89165866 0.009576912 -0.00081570353
690000000 0.0085506532 -0.0028035848 -0.42843705 -0.87956065 -0.42839918 -0.87923652 0.0094958385 -0.0011281364
700000000 0.0083891097 -0.0029776408 -0.45368633 -0.86663687 -0.45362538 -0.86615396 0.0095381802 -0.0013125038
710000000 0.0082852319 -0.0030866005 -0.47882241 -0.85264581 -0.47863105 -0.85239565 0.0096280063 -0.0013725553
720000000 0.0079461047 -0.0033577643 -0.50321227 -0.83809793 -0.50312155 -0.83778626 0.0094694914 -0.0015364601
730000000 0.0077025271 -0.0038500959 -0.52727133 -0.82285017 -0.52712184 -0.82249802 0.0094994791 -0.0018379611
740000000 0.0075472398 -0.0041768812 -0.55080777 -0.80676115 -0.5508337 -0.80657756 0.0096141798 -0.0020054609
750000000 0.0072854892 -0.0043424414 -0.57382894 -0.7902258 -0.57379043 -0.78995371 0.0096211508 -0.0020281968
760000000 0.0072565726 -0.0045145666 -0.59651613 -0.77310616 -0.59664011 -0.7728079 0.009782034 -0.0022813457
770000000 0.0071379626 -0.0048060836 -0.61867887 -0.75509357 -0.61852956 -0.75493175 0.0097706141 -0.002442545
780000000 0.007193665 -0.0050577032 -0.6401552 -0.73652852 -0.6400888 -0.73637652 0.0097726788 -0.0027487697
790000000 0.0069263293 -0.0053477967 -0.66117787 -0.71740699 -0.66102958 -0.7172035 0.0096477149 -0.0029494257
800000000 0.0070623239 -0.0054556532 -0.6815412 -0.69767904 -0.68143111 -0.69732791 0.0096501568 -0.0033763237
810000000 0.0067761461 -0.0056278794 -0.70138812 -0.67733794 -0.70119971 -0.67720431 0.0097211059 -0.0036155642
820000000 0.0066916319 -0.0057536061 -0.72070098 -0.65645117 -0.72044837 -0.65614557 0.0096933749 -0.0040236879
830000000 0.0065175612 -0.0058611911 -0.73914301 -0.63509214 -0.73912442 -0.63479316 0.0095788119 -0.0042706886
840000000 0.0064583728 -0.0058139954 -0.75711626 -0.61315739 -0.75706404 -0.61280978 0.0093733156 -0.0044247052
850000000 0.0064329524 -0.0062070997 -0.77457917 -0.59064156 -0.77434504 -0.5902372 0.0093000149 -0.0046064053
860000000 0.0058718249 -0.0057869628 -0.79106748 -0.56761801 -0.79096884 -0.56737012 0.0089726988 -0.0048479103
870000000 0.0059483293 -0.0062236441 -0.80707234 -0.54430664 -0.80685598 -0.54394972 0.0087176412 -0.0050536543
880000000 0.0055538951 -0.0059578819 -0.82227552 -0.52040607 -0.82216406 -0.5200547 0.0085435547 -0.0052397256
890000000 0.0051173391 -0.0061415485 -0.83690619 -0.49606785 -0.83683813 -0.49579799 0.0082895858 -0.0050722226
900000000 0.0051026312 -0.0062495414 -0.85076487 -0.4714908 -0.85049081 -0.47120833 0.0081776138 -0.0052896477
910000000 0.0047645657 -0.00617202 -0.86392379 -0.44627643 -0.86359584 -0.4459039 0.0078414436 -0.0055203075
920000000 0.004487169 -0.0061121597 -0.87627476 -0.42077535 -0.87589318 -0.42064124 0.0077544488 -0.0052859276
930000000 0.0042100018 -0.0062223775 -0.88776797 -0.39510274 -0.88762832 -0.39493603 0.0078668669 -0.0056152456
940000000 0.0036366689 -0.0061529451 -0.89859611 -0.36895081 -0.89850461 -0.3688305 0.0075193821 -0.0058243107
950000000 0.0035319163 -0.0062739612 -0.90885264 -0.34262127 -0.90850568 -0.34234142 0.0073678945 -0.0058934828
960000000 0.0031523248 -0.0063034776 -0.91807061 -0.31589797 -0.91788262 -0.31584692 0.0072991587 -0.0059810462
970000000 0.0028744901 -0.0063055353 -0.92673373 -0.28899866 -0.92637974 -0.28877646 0.0072744926 -0.0063179848
980000000 0.0026548798 -0.0067561786 -0.9345296 -0.26197612 -0.93435258 -0.26180655 0.0073796948 -0.0066605359
990000000 0.0023843246 -0.0068683727 -0.94133985 -0.23442978 -0.94113815 -0.23434117 0.0069755414 -0.0069488431
1000000000 0.0022693328 -0.0068607191 -0.94771856 -0.20693377 -0.94719493 -0.20679346 0.0066021746 -0.0073903091
1010000000 0.0018614475 -0.0070354519 -0.95283949 -0.17922717 -0.9525795 -0.17920011 0.0064393757 -0.0077657243
1020000000 0.001728466 -0.0071898559 -0.95725858 -0.15141803 -0.95706481 -0.15142211 0.0060320324 -0.0077043502
1030000000 0.0017121074 -0.0073642042 -0.96091598 -0.12350729 -0.96073192 -0.12333506 0.0059193517 -0.008233537
1040000000 0.0015237845 -0.0074891141 -0.9640069 -0.095495291 -0.96373218 -0.095394477 0.0054168049 -0.0082472702
1050000000 0.0014023839 -0.0075069554 -0.9660486 -0.067319661 -0.96603417 -0.067429811 0.0052562365 -0.0086777024
1060000000 0.0012487567 -0.0075501455 -0.96730947 -0.039122194 -0.96721065 -0.039154142 0.004724931 -0.0085829617
1070000000 0.0010315366 -0.0077459882 -0.96784592 -0.011086315 -0.96754396 -0.010928527 0.0045306375 -0.0088616665
1080000000 0.00084295799 -0.0072981892 -0.96745819 0.017012626 -0.96713877 0.017163306 0.0041338662 -0.0086790733
1090000000 0.00074272533 -0.0073706871 -0.96617293 0.045144379 -0.96611154 0.045148224 0.0040552276 -0.0090670716
1100000000 0.00054156641 -0.0075809881 -0.96417832 0.073101878 -0.96405452 0.073276863 0.0035800873 -0.0088892058
1110000000 0.00042749848 -0.0074360482 -0.96143138 0.10120931 -0.96113694 0.10119364 0.0033235718 -0.0089305127
1120000000 -0.00014174415 -0.0070108501 -0.95782202 0.12892331 -0.95765585 0.12899414 0.0029934868 -0.0088830898
1130000000 -0.00013455655 -0.0071263001 -0.95348608 0.15666494 -0.95315367 0.15680006 0.0026891502 -0.0088653201
1140000000 -0.00026909146 -0.0070819058 -0.94815314 0.18435565 -0.94794208 0.1844359 0.0024159306 -0.0091069005
1150000000 -0.00048761803 -0.0070441435 -0.9420777 0.21170236 -0.94202912 0.21182902 0.0021781714 -0.0092434194
1160000000 -0.0010399498 -0.0069679827 -0.93530929 0.23901646 -0.93521392 0.23884359 0.001861634 -0.0092710778
1170000000 -0.0012752106 -0.0069828182 -0.92781246 0.26589662 -0.927513 0.26604697 0.0016846925 -0.0094485153
1180000000 -0.0016892105 -0.0071076681 -0.91924518 0.292678 -0.91928864 0.29287043 0.001159976 -0.0095334155
1190000000 -0.0017360543 -0.0070081605 -0.91015589 0.31920442 -0.90993142 0.3191981 0.00089007663 -0.0095367776
1200000000 -0.0021446128 -0.0072661461 -0.90045607 0.34548518 -0.90002602 0.34545338 0.00053419778 -0.0099693164
1210000000 -0.0020622064 -0.0072968625 -0.88964081 0.37136197 -0.88943595 0.37140334 0.00024314047 -0.0099713635
1220000000 -0.0024805118 -0.0071270494 -0.87825805 0.39673352 -0.87793994 0.39686665 -0.00038708816 -0.010095749
1230000000 -0.0028527451 -0.0073551629 -0.86608702 0.42208868 -0.86590052 0.42217687 -0.0010127635 -0.010078516
1240000000 -0.003051908 -0.0073919711 -0.85327375 0.44702819 -0.85304207 0.44674909 -0.0012665561 -0.010316027
1250000000 -0.0032686868 -0.0073953839 -0.83951515 0.4712418 -0.83940077 0.47126204 -0.0014081586 -0.010222109
1260000000 -0.0035597479 -0.0075723398 -0.82549608 0.49544454 -0.82499492 0.49536711 -0.0018776723 -0.010050882
1270000000 -0.0037526418 -0.0073179691 -0.81057876 0.51907289 -0.8100999 0.51891291 -0.0024723012 -0.0098596523
1280000000 -0.0037571453 -0.0073580379 -0.79483432 0.54218578 -0.79451096 0.54223168 -0.0028981515 -0.0096509103
1290000000 -0.0041392865 -0.0072287396 -0.77841187 0.56477803 -0.77815914 0.56485307 -0.00318077 -0.0096818255
1300000000 -0.0043388414 -0.0071051177 -0.76150346 0.58722156 -0.7613802 0.58709604 -0.0035595889 -0.0095984349
1310000000 -0.0045459908 -0.0069277948 -0.74390775 0.60877424 -0.74374902 0.60864097 -0.0037403062 -0.0093526598
1320000000 -0.0045303968 -0.0068036476 -0.72575694 0.63000309 -0.72552323 0.62988228 -0.0041203336 -0.0093097445
1330000000 -0.0048121815 -0.0064873723 -0.70685244 0.65055448 -0.70676839 0.65050739 -0.0043905121 -0.0090730442
1340000000 -0.0048081558 -0.0063053044 -0.68770492 0.67052162 -0.68721783 0.67056578 -0.0047454983 -0.0088117309
1350000000 -0.0054627229 -0.0061922325 -0.66756082 0.69007266 -0.66747999 0.69008589 -0.0051003173 -0.0088574421
1360000000 -0.0059424369 -0.0061946386 -0.64705503 0.70909131 -0.64698607 0.70884812 -0.0055004121 -0.0086250771
1370000000 -0.0061456799 -0.0059086848 -0.6261602 0.72725457 -0.62585735 0.72726637 -0.0060597965 -0.0086403806
1380000000 -0.0065969122 -0.0057864096 -0.60444832 0.74511343 -0.60449338 0.74489897 -0.0064465757 -0.0083278026
1390000000 -0.0068909964 -0.0055877138 -0.58262187 0.76211601 -0.58225971 0.76189059 -0.0072101578 -0.0080738552
1400000000 -0.0072081848 -0.0054517644 -0.55985707 0.77840513 -0.55974936 0.7782746 -0.0074466476 -0.0081265923
1410000000 -0.0076189991 -0.0056884019 -0.53708136 0.79422724 -0.53673393 0.79388863 -0.0079429084 -0.0080073066
1420000000 -0.0080461232 -0.0057110018 -0.51363319 0.80911553 -0.51327819 0.8087154 -0.0084705371 -0.0076922108
1430000000 -0.0083490657 -0.0053309309 -0.48979765 0.82354349 -0.48964849 0.82314712 -0.0091122147 -0.0072689303
1440000000 -0.008740142 -0.0054627773 -0.46561909 0.83709002 -0.46528506 0.83682024 -0.0098217847 -0.0073270435
1450000000 -0.0091073494 -0.0054269647 -0.44107264 0.84992576 -0.44086355 0.84969831 -0.010301648 -0.0068262452
1460000000 -0.009401002 -0.0052577313 -0.41599852 0.86222959 -0.41574168 0.86188054 -0.010867213 -0.0064386497
1470000000 -0.0094859162 -0.0052425256 -0.39058483 0.87359822 -0.39042667 0.8733595 -0.011013545 -0.0057853451
1480000000 -0.0097334413 -0.0051548127 -0.36505464 0.88424397 -0.3649717 0.88417912 -0.011661272 -0.0054398403
1490000000 -0.010099006 -0.0048676454 -0.33921418 0.89429361 -0.33890757 0.89406288 -0.011905695 -0.004955336
1500000000 -0.010234364 -0.0047265254 -0.31299222 0.90361899 -0.31266481 0.90333444 -0.012330731 -0.0044978485
1510000000 -0.010688623 -0.0042806333 -0.28651014 0.91196108 -0.28637257 0.91183352 -0.012686303 -0.0041244635
1520000000 -0.01083421 -0.0040776436 -0.2599422 0.9197942 -0.25978416 0.91949952 -0.012859219 -0.0034903104
1530000000 -0.011058647 -0.0036639296 -0.23297435 0.92662334 -0.23294613 0.92631626 -0.013274837 -0.0032075974
1540000000 -0.011351891 -0.0034140903 -0.20612022 0.93275398 -0.20584968 0.93227273 -0.013487024 -0.0027743792
1550000000 -0.01160411 -0.0029391602 -0.17901202 0.93800467 -0.17855033 0.9378621 -0.013732232 -0.002373951
1560000000 -0.011757416 -0.0025494229 -0.15157953 0.94259638 -0.15145868 0.94224477 -0.013982188 -0.0017318494
1570000000 -0.012132297 -0.0018435945 -0.12408751 0.94624305 -0.1239652 0.94592792 -0.01415409 -0.0012849332
1580000000 -0.012524473 -0.0015012349 -0.096531153 0.9493956 -0.096384063 0.94885743 -0.01437276 -0.00092526805
1590000000 -0.012665177 -0.0011484537 -0.069078416 0.95128572 -0.068933725 0.95108366 -0.014760012 -0.00049237837
1600000000 -0.013126148 -0.000738414 -0.041318119 0.95262021 -0.041140079 0.95232379 -0.015006134 -5.1022507e-006
1610000000 -0.01336082 -0.00024170009 -0.013747483 0.95334619 -0.013478532 0.95280719 -0.015300475 0.00058083516
1620000000 -0.013681175 0.00018254202 0.014002934 0.95291513 0.014162034 0.95257545 -0.015623502 0.0014771298
1630000000 -0.014047695 0.00051036477 0.041643471 0.95187795 0.041754454 0.95156944 -0.016207885 0.0019698213
1640000000 -0.014466761 0.00084826699 0.069326878 0.95011377 0.069114655 0.94964743 -0.016340056 0.0025002945
1650000000 -0.014673468 0.0013938611 0.096683428 0.94741791 0.096757367 0.94694597 -0.016320832 0.0032644186
1660000000 -0.014925854 0.0016843011 0.12400734 0.94383675 0.12401569 0.94353396 -0.016520197 0.0038166726
1670000000 -0.015041722 0.0019190579 0.15125807 0.9395346 0.15148002 0.93928641 -0.016644489 0.0046126717
1680000000 -0.015154845 0.0023480046 0.17848143 0.9347747 0.17847861 0.93412799 -0.016475992 0.0053215493
1690000000 -0.01537339 0.0025458764 0.20547655 0.9287678 0.20524454 0.92842448 -0.016589824 0.0060541672
1700000000 -0.015280883 0.0030155783 0.23217291 0.92222154 0.23209521 0.92168438 -0.016395209 0.006802151
1710000000 -0.015259024 0.0036687697 0.25872889 0.91488975 0.25866833 0.9144547 -0.016107967 0.0075475974
1720000000 -0.015015286 0.0041350829 0.28505018 0.90654373 0.28514278 0.90636158 -0.015785042 0.0083503723
1730000000 -0.014914157 0.0045261965 0.3109796 0.89784998 0.31109321 0.89751822 -0.015556435 0.0088149291
1740000000 -0.014693329 0.0051234141 0.33706036 0.88818133 0.33688217 0.88771427 -0.01542434 0.0094049489
1750000000 -0.014755588 0.0058760317 0.36252037 0.87768328 0.36242053 0.87736368 -0.015254125 0.0099707162
1760000000 -0.014659606 0.0061576464 0.38772538 0.86670154 0.3878074 0.86635357 -0.014941929 0.010565183
1770000000 -0.01450192 0.0068838038 0.41256636 0.85484296 0.41242594 0.85452831 -0.014708634 0.011204723
