# GHz S RI R 50

1.000000000000000e-02 -2.0722071641203206e-04  4.7027991095852616e-03  9.9938579929013849e-01 -1.0286961768185743e-02  9.9976416031749060e-01 -1.0816299531120292e-02  3.0632898552457831e-04  6.2888437635474567e-03
2.000000000000000e-02  2.0772934307893716e-03 -3.9132083119660901e-04  9.9902095339517094e-01 -1.8981423013106302e-02  9.9854761926087787e-01 -1.9084425853540497e-02  3.9648726207789087e-03 -6.7365154119557722e-05
3.000000000000000e-02  4.5078771924187089e-04 -1.0788532400266421e-03  9.9851715854039447e-01 -2.8360820898788292e-02  9.9838708242993923e-01 -2.8494488540706100e-02  9.4098739072617842e-04 -1.2048073470312683e-03
4.000000000000000e-02 -7.6274205109059883e-04  4.3153086506078858e-04  9.9818311409293980e-01 -3.7907198235852389e-02  9.9807686971943599e-01 -3.7824760529417974e-02 -3.3574770586536248e-04  4.0478936520745392e-04
5.000000000000000e-02 -2.7948461479953186e-05  1.4054649517562423e-03  9.9745021104016540e-01 -4.7200592300070954e-02  9.9727402302335388e-01 -4.7337484923234474e-02  3.8176666944243786e-04  1.3579239853013002e-03
6.000000000000000e-02  6.9911308663364201e-04  1.3737696213316818e-03  9.9680396838011154e-01 -5.6427511505575810e-02  9.9668939941826107e-01 -5.6564269440170137e-02  1.2867699268794260e-03  1.3579382976588524e-03
7.000000000000001e-02  8.5070533141669400e-04  6.5973434349403642e-04  9.9624402141096802e-01 -6.5872881719485410e-02  9.9606565506782208e-01 -6.5789304453415257e-02  1.7565893684276205e-03  6.6081518711705756e-04
8.000000000000000e-02  3.3244693375475312e-04  3.8353035913361747e-04  9.9579628205335058e-01 -7.4982154642749321e-02  9.9542020157264222e-01 -7.5026117287992522e-02  1.1626393820632075e-03  5.8257061527224280e-04
9.000000000000001e-02 -3.0954102683028884e-04  7.2690870615655723e-04  9.9512678895301421e-01 -8.4335131934924354e-02  9.9479814882930462e-01 -8.4301594519211806e-02  6.7376226413735170e-04  5.8182587831522438e-04
1.000000000000000e-01  7.0194160215202310e-05  1.2710196706905551e-03  9.9417408433486809e-01 -9.3585999452262397e-02  9.9394215570250155e-01 -9.3429764399021925e-02  5.3858935325701946e-04  1.1813098227835162e-03
1.100000000000000e-01  5.9854597008755285e-04  1.3060890720300593e-03  9.9288620641131331e-01 -1.0265450975729176e-01  9.9262778705460053e-01 -1.0274703281879444e-01  8.5722975594942127e-04  1.5329085344390925e-03
1.200000000000000e-01  6.4653393554799468e-04  1.0815057591003537e-03  9.9187857351401909e-01 -1.1182589918100680e-01  9.9164255151782710e-01 -1.1186332046972866e-01  1.2647269171571981e-03  1.3093029878119328e-03
1.300000000000000e-01  3.3224916230282305e-04  8.6384369074938368e-04  9.9079364390423563e-01 -1.2104006940796139e-01  9.9047481681101490e-01 -1.2099070407743853e-01  1.0920150071622083e-03  9.3481965283773736e-04
1.400000000000000e-01 -2.4546543264603515e-06  8.9641327626032515e-04  9.8958388561002741e-01 -1.3016049093271290e-01  9.8915673106826252e-01 -1.3013128930966023e-01  8.3828152865477519e-04  7.8392693314282050e-04
1.500000000000000e-01  2.9233467425179762e-05  1.2065248659010892e-03  9.8791213592648708e-01 -1.3932240871103382e-01  9.8761458128620072e-01 -1.3930423440858511e-01  5.5283032033397119e-04  1.0639553293061736e-03
1.600000000000000e-01  8.9494862660908603e-05  1.1160448278581309e-03  9.8653965337396921e-01 -1.4845871720777615e-01  9.8612900984874974e-01 -1.4848236816530946e-01  8.0739253882059327e-04  1.2719487223542478e-03
1.700000000000000e-01  8.5360681783206967e-05  9.0360051110534951e-04  9.8501916361716735e-01 -1.5743948013496989e-01  9.8477676865139085e-01 -1.5734841539890462e-01  9.8101787935813019e-04  1.3175064756917546e-03
1.800000000000000e-01  3.4940249164877439e-05  7.9644030808793563e-04  9.8356091620398600e-01 -1.6657819375673208e-01  9.8312752107201962e-01 -1.6640102829112932e-01  1.0800049605925823e-03  1.0203676429166677e-03
1.900000000000000e-01 -1.6553123283949357e-04  9.6377896444943892e-04  9.8193013197567647e-01 -1.7562842396128123e-01  9.8149013674107688e-01 -1.7551666279704714e-01  9.1012227597765335e-04  9.0933441550734785e-04
2.000000000000000e-01 -3.3013090278476989e-04  1.1487403261922927e-03  9.8005838633754994e-01 -1.8463418138393486e-01  9.7973644909163704e-01 -1.8448715619875314e-01  6.3696852993227982e-04  1.3033106584881958e-03
2.100000000000000e-01 -1.1898579615530320e-04  1.3699684311268563e-03  9.7792549460797795e-01 -1.9349430803528631e-01  9.7752920096868479e-01 -1.9345315874938215e-01  9.0411524763222640e-04  1.5880183293315140e-03
2.200000000000000e-01 -9.9717199232978023e-05  1.4814675664975125e-03  9.7603419348138931e-01 -2.0254971166443875e-01  9.7574161906946055e-01 -2.0249096970016614e-01  8.1043006281935281e-04  1.7803528355918653e-03
2.300000000000000e-01  5.5597447283040361e-05  1.5251977410581314e-03  9.7398986321023429e-01 -2.1143240526959156e-01  9.7368184588690765e-01 -2.1127929622154126e-01  1.1381826545809148e-03  1.7927136811686593e-03
2.400000000000000e-01 -2.9422924505191671e-04  1.7647757271080484e-03  9.7196363599192237e-01 -2.2055966578173072e-01  9.7163676946777422e-01 -2.2025580222353866e-01  1.1220183504717332e-03  1.6480411185210860e-03
2.500000000000000e-01 -3.9983073836319079e-04  2.1201263764365720e-03  9.6973202311630913e-01 -2.2924418059844365e-01  9.6953424984126813e-01 -2.2929779697914196e-01  9.0349335016680311e-04  1.7920156050366147e-03
2.600000000000000e-01 -1.0422788192137309e-04  2.1299570949279605e-03  9.6682255474917522e-01 -2.3815815802139723e-01  9.6666323579690061e-01 -2.3815666234611249e-01  6.6619372368364733e-04  1.8372473438570324e-03
2.700000000000000e-01 -8.7788867347072305e-06  2.2323462901477926e-03  9.6441952745070192e-01 -2.4711544559998908e-01  9.6421880582857522e-01 -2.4687762436616612e-01  7.8328641204911478e-04  2.1729571315956941e-03
2.800000000000000e-01 -1.8785320290884248e-04  2.2098655743025145e-03  9.6213361531740116e-01 -2.5579606225528345e-01  9.6189868641520904e-01 -2.5564550706209721e-01  9.7559476901204164e-04  2.3843963544118423e-03
2.900000000000000e-01 -1.2131626721266281e-04  2.2511200420798983e-03  9.5960021391231454e-01 -2.6453175973220100e-01  9.5958593853950780e-01 -2.6453541665093550e-01  8.4748161130402224e-04  2.1006237346901969e-03
3.000000000000000e-01 -1.5957228128607383e-04  2.4128204949604016e-03  9.5720499060533837e-01 -2.7339557974612227e-01  9.5681140272475385e-01 -2.7315118482231704e-01  8.3536413548199607e-04  2.1446947963240310e-03
3.100000000000000e-01 -9.3153344828698047e-05  2.5583729435552202e-03  9.5451273678691484e-01 -2.8215176600832409e-01  9.5426259320343909e-01 -2.8217738271673048e-01  6.3181187546884881e-04  2.6559063697008016e-03
3.200000000000000e-01  1.5963405342998708e-04  3.0210526279561721e-03  9.5179441397905906e-01 -2.9092325104772909e-01  9.5140298282363844e-01 -2.9083430248803432e-01  4.9178577193588924e-04  2.9674651810163190e-03
3.300000000000000e-01  2.0618207181041142e-04  2.9452416059072947e-03  9.4903943737431773e-01 -2.9941972692095653e-01  9.4878419938407732e-01 -2.9964401081835285e-01  7.1090396121661383e-04  3.1954213919596587e-03
3.400000000000000e-01  4.9549472555294365e-04  3.0124342805926902e-03  9.4599940583253828e-01 -3.0818545164547900e-01  9.4580044044464495e-01 -3.0804157519033526e-01  6.5451852213051654e-04  3.6075512879862920e-03
3.500000000000000e-01  4.2056775006053424e-04  3.2655954998544591e-03  9.4329989456094632e-01 -3.1678202969107117e-01  9.4286919521593848e-01 -3.1683508921291476e-01  7.8917747704343412e-04  3.5152173099052748e-03
3.600000000000000e-01  5.9749595461451501e-04  3.5813444767599698e-03  9.4013386880800998e-01 -3.2536942270866759e-01  9.3989240926373419e-01 -3.2535639025625779e-01  5.4310887529186291e-04  3.6947313761306042e-03
3.700000000000000e-01  6.4222437528334503e-04  3.7540951853337109e-03  9.3706873576185734e-01 -3.3396107897373423e-01  9.3675303748868921e-01 -3.3389716138234876e-01  5.1625323597607401e-04  4.2059051548993462e-03
3.800000000000000e-01  9.6974932066504812e-04  4.0284768061314537e-03  9.3378076318037906e-01 -3.4266075981986249e-01  9.3357291812120424e-01 -3.4245568493515871e-01  5.5187438652923716e-04  4.1806790854825252e-03
3.900000000000000e-01  8.7558602845803912e-04  4.0277144308099901e-03  9.3066040292670271e-01 -3.5107173584051143e-01  9.3018245701133495e-01 -3.5088297512829336e-01  7.4952521084237873e-04  4.3076458017841735e-03
4.000000000000000e-01  8.5345422008708833e-04  3.9981510807398021e-03  9.2687866248097572e-01 -3.5958334982686113e-01  9.2660118702894412e-01 -3.5929999053060940e-01  8.8368722537986199e-04  4.1822382861255360e-03
4.100000000000000e-01  9.2562220321888060e-04  4.3467686553501604e-03  9.2331105079480058e-01 -3.6797812813872194e-01  9.2297928340749658e-01 -3.6791983500387448e-01  8.5455109676386737e-04  4.0911414497527181e-03
4.200000000000000e-01  1.0967159919064704e-03  4.3690732621331557e-03  9.1988343620020974e-01 -3.7632326815544997e-01  9.1947628630881995e-01 -3.7623458210846639e-01  9.5976447282403155e-04  4.2446988534833247e-03
4.300000000000000e-01  8.7914965540900752e-04  4.2527814301835994e-03  9.1621377297021755e-01 -3.8473726930010715e-01  9.1594966418586821e-01 -3.8458816976428739e-01  1.0859225528730926e-03  4.4269395791697213e-03
4.400000000000000e-01  8.0675530396200242e-04  4.4519207833760305e-03  9.1261207004703204e-01 -3.9290494022568484e-01  9.1227166720630049e-01 -3.9292458094115085e-01  1.0178079495901180e-03  4.3803832142511965e-03
4.500000000000000e-01  8.0315318670090736e-04  4.1349653387924177e-03  9.0889850615541645e-01 -4.0132811798611678e-01  9.0865535467407121e-01 -4.0125621185850890e-01  1.1076862572244666e-03  4.3196211956004682e-03
4.600000000000000e-01  4.7449575216331613e-04  4.4447732354293730e-03  9.0502178278910561e-01 -4.0970337668297313e-01  9.0491081378397586e-01 -4.0958131138183806e-01  8.8864258130771250e-04  4.0380061894054343e-03
4.700000000000000e-01  4.3092377110369494e-04  4.3178509012150616e-03  9.0119762488545874e-01 -4.1789816304257754e-01  9.0118149151308424e-01 -4.1793156010209687e-01  1.0418144523614411e-03  3.7670142169318010e-03
4.800000000000000e-01  2.7441951688738286e-04  4.2778533986121059e-03  8.9722194141925804e-01 -4.2603318748797736e-01  8.9699117430139330e-01 -4.2599185482547558e-01  1.0042377146302266e-03  3.9183760694930540e-03
4.900000000000000e-01  1.0235082601921935e-04  4.1437708985566056e-03  8.9319843512856612e-01 -4.3426012597859159e-01  8.9288006097451411e-01 -4.3407817937563231e-01  1.0157017566642362e-03  3.6500347557781362e-03
5.000000000000000e-01  2.9710832436645289e-05  4.0598968803177678e-03  8.8922081983518253e-01 -4.4225435442661609e-01  8.8872071177515333e-01 -4.4225449924343047e-01  1.0485063723856792e-03  3.6833455824242739e-03
5.100000000000000e-01  2.7481504454302842e-04  4.2094605887977648e-03  8.8486840997297445e-01 -4.5035927506905127e-01  8.8467546035048072e-01 -4.5035727500225836e-01  1.1476994145945096e-03  3.5060920081361195e-03
5.200000000000000e-01  8.4071403189779105e-05  4.0199475658425571e-03  8.8065885263120092e-01 -4.5841594306212508e-01  8.8036061657377562e-01 -4.5826000894646290e-01  9.5801846217392667e-04  3.6335731245926445e-03
5.300000000000000e-01  2.3889600199606623e-04  4.2446571725004364e-03  8.7638523155541170e-01 -4.6640793493618565e-01  8.7589998153859783e-01 -4.6639299689603408e-01  9.7522428368693409e-04  3.8689440283073587e-03
5.400000000000000e-01  4.5980977677710557e-04  4.1383576508429772e-03  8.7194074359915463e-01 -4.7416611237392214e-01  8.7156259588388740e-01 -4.7430174089493354e-01  9.9055457109893316e-04  3.7722093944936247e-03
5.500000000000000e-01  4.6069653456128328e-04  4.5921813575631222e-03  8.6747286911769439e-01 -4.8220644360385662e-01  8.6726803986277878e-01 -4.8220580756082793e-01  1.1915906521012913e-03  4.1230720625329877e-03
5.600000000000001e-01  6.4996773746737752e-04  4.4991065807329991e-03  8.6286102623564731e-01 -4.9002444415940538e-01  8.6248358171263684e-01 -4.8989920218165395e-01  1.3557534411994681e-03  4.3279664570669727e-03
5.700000000000001e-01  7.6355859378003047e-04  5.0263230553564651e-03  8.5832656528283868e-01 -4.9783334999592505e-01  8.5807719537527738e-01 -4.9781779322911218e-01  1.4175461741141343e-03  4.4907372719137761e-03
5.800000000000001e-01  9.5692247697185678e-04  5.4517018275729544e-03  8.5340666166655610e-01 -5.0570980182602332e-01  8.5313272483076086e-01 -5.0553219395217897e-01  1.4973880765281036e-03  4.8567687406535984e-03
5.900000000000001e-01  1.2232450755780113e-03  5.6164729513888696e-03  8.4883098371453269e-01 -5.1334491283229589e-01  8.4843724338308013e-01 -5.1346100030698705e-01  1.4870758545257495e-03  5.4970257749881960e-03
6.000000000000001e-01  1.4319592661458259e-03  5.8726224632312772e-03  8.4381101074482046e-01 -5.2106848336603406e-01  8.4364701368901340e-01 -5.2095241991961627e-01  1.7934458858841094e-03  5.5881548947017525e-03
6.100000000000000e-01  1.5413589566139968e-03  6.2489513066806912e-03  8.3908456517730456e-01 -5.2868403331159208e-01  8.3872285874302699e-01 -5.2864577037900995e-01  2.2357300769561806e-03  5.9032796676186791e-03
6.200000000000000e-01  1.6541045608443701e-03  6.5700952195500307e-03  8.3415325092340531e-01 -5.3643129784683508e-01  8.3371734483873783e-01 -5.3621503237174883e-01  2.4137242467587509e-03  6.0116831633786364e-03
6.300000000000000e-01  2.1132909338739394e-03  6.7791861949894139e-03  8.2866301774752826e-01 -5.4361649621354313e-01  8.2855139666381405e-01 -5.4370416048237624e-01  2.6958971191324505e-03  6.2915079577135239e-03
6.400000000000000e-01  2.1056315897943437e-03  7.0528965798286221e-03  8.2363546589048209e-01 -5.5114409211755944e-01  8.2348294654921228e-01 -5.5118101477048986e-01  2.7980853111520022e-03  6.5412486499038906e-03
6.500000000000000e-01  2.0737038862257799e-03  7.3883897903542651e-03  8.1850866676777523e-01 -5.5875323770211449e-01  8.1813807074424272e-01 -5.5850881288907417e-01  3.0449632350668838e-03  6.7034892783846218e-03
6.600000000000000e-01  2.3719738080332743e-03  7.6708306469644577e-03  8.1316696569519231e-01 -5.6587873571092984e-01  8.1295572075631872e-01 -5.6588413247652991e-01  3.1797846639718789e-03  6.8855739083991570e-03
6.700000000000000e-01  2.2795640399450381e-03  7.6478810799890749e-03  8.0797028166071561e-01 -5.7330454893286220e-01  8.0783059498890131e-01 -5.7340827327775756e-01  3.3613636761184677e-03  7.3818973395866454e-03
6.800000000000000e-01  2.5364789217659778e-03  7.9500817967215580e-03  8.0266701034861909e-01 -5.8058819742168100e-01  8.0232931552427211e-01 -5.8060060743635611e-01  3.5039681786124075e-03  7.2892717223706520e-03
6.900000000000001e-01  2.5043834957977178e-03  8.1381719488488706e-03  7.9716008897870350e-01 -5.8782247336706162e-01  7.9684432089473523e-01 -5.8772534236821350e-01  3.7186739082048074e-03  7.3149894476001774e-03
7.000000000000001e-01  2.5762904058072040e-03  8.2006830637647854e-03  7.9183989642525532e-01 -5.9496257890621829e-01  7.9136731326967580e-01 -5.9482276082625118e-01  3.8314032927631368e-03  7.4936146822979239e-03
7.100000000000001e-01  2.6043594642444386e-03  8.3372910199137600e-03  7.8614362670147719e-01 -6.0230052439426640e-01  7.8592027349970217e-01 -6.0207280800493479e-01  3.8285162993254461e-03  7.7441433507301509e-03
7.200000000000001e-01  2.7731560693042227e-03  8.2154941779745642e-03  7.8059250533878477e-01 -6.0930623159000807e-01  7.8029032999647985e-01 -6.0917658148415033e-01  3.9002433096910175e-03  7.7315768881577526e-03
7.300000000000001e-01  3.1941070292550080e-03  8.1709324712008462e-03  7.7487649883785681e-01 -6.1633179968239993e-01  7.7453701880989601e-01 -6.1614479182747317e-01  4.1384214185822719e-03  7.8980713783276309e-03
7.400000000000000e-01  3.4721112353800600e-03  8.2467392620211560e-03  7.6895364158083068e-01 -6.2324409425945948e-01  7.6876608987170592e-01 -6.2325502999096472e-01  4.2501524600587941e-03  8.1699135581718117e-03
7.500000000000000e-01  3.5887131205054341e-03  8.2339063671315535e-03  7.6322457378478070e-01 -6.3005264042617437e-01  7.6295178639585004e-01 -6.2999659378351214e-01  4.2060146357812567e-03  8.3434243563457310e-03
7.600000000000000e-01  3.7373792399954583e-03  8.4618614117155516e-03  7.5746289752312812e-01 -6.3700644522066707e-01  7.5715558198055277e-01 -6.3711928274589036e-01  4.4022181607363126e-03  8.6639741974401958e-03
7.700000000000000e-01  4.0103173021864471e-03  8.5962700141773291e-03  7.5142954217177871e-01 -6.4388832971998211e-01  7.5126888125441593e-01 -6.4373339204828317e-01  4.4990895636758555e-03  8.8164775506920593e-03
7.800000000000000e-01  4.2529476190333732e-03  8.9153544202400081e-03  7.4537081738075073e-01 -6.5058497971986973e-01  7.4521685307972119e-01 -6.5051733740878359e-01  4.7454998186461017e-03  8.9857846149681234e-03
7.900000000000000e-01  4.5381210908487825e-03  8.9132474070637117e-03  7.3930530408369144e-01 -6.5731854721806315e-01  7.3909631393768616e-01 -6.5717189451381519e-01  4.8893151757069707e-03  9.0317092647960173e-03
8.000000000000000e-01  4.6399990141391158e-03  9.3208788218526635e-03  7.3314745653439439e-01 -6.6388211908990880e-01  7.3278741146320669e-01 -6.6378402873865650e-01  5.2628740120037598e-03  9.2203092919414566e-03
8.100000000000001e-01  4.8232689735275697e-03  9.3049894157692173e-03  7.2698836325358307e-01 -6.7050925803559214e-01  7.2684200439729130e-01 -6.7032630996891185e-01  5.4409046555539547e-03  9.4797222574257781e-03
8.200000000000001e-01  4.9605019935832027e-03  9.4920594425366087e-03  7.2074029522009764e-01 -6.7710239562550067e-01  7.2041130487349558e-01 -6.7687102269204713e-01  5.7967849822051342e-03  9.6582628051219994e-03
8.300000000000001e-01  5.0910725082304684e-03  9.5858672316899256e-03  7.1446793330088754e-01 -6.8340701239589774e-01  7.1416421110895845e-01 -6.8341785672425071e-01  5.9989579239437887e-03  9.7427499199527774e-03
8.400000000000001e-01  5.0614100914201073e-03  9.7785153099225371e-03  7.0815807098058925e-01 -6.8980635196543427e-01  7.0780156398154248e-01 -6.8979518622756142e-01  6.1230910312632079e-03  9.7295880276381721e-03
8.500000000000001e-01  5.4762647688450811e-03  1.0055799749819353e-02  7.0169424887724052e-01 -6.9633254290756630e-01  7.0125513501703218e-01 -6.9615353712923311e-01  6.2644643313369717e-03  9.8552394410875137e-03
8.600000000000001e-01  5.1546492460099484e-03  9.6810455671455763e-03  6.9514664096577872e-01 -7.0248972681229704e-01  6.9488241632276215e-01 -7.0243037365586891e-01  6.5092535705352436e-03  9.7380387829890686e-03
8.700000000000001e-01  5.6069999020879526e-03  1.0072098166645428e-02  6.8876578164820212e-01 -7.0876056400538390e-01  6.8837029415725914e-01 -7.0860843437075982e-01  6.7157488728326479e-03  9.6930661863427435e-03
8.800000000000000e-01  5.4446624244136885e-03  9.8694505343347901e-03  6.8214747106873996e-01 -7.1487100798008774e-01  6.8177540611532517e-01 -7.1483012359886344e-01  6.8946904237486969e-03  9.7283681766446774e-03
8.900000000000000e-01  5.7558470059862286e-03  9.7064732929725943e-03  6.7548638741463540e-01 -7.2105202582523642e-01  6.7520386560254753e-01 -7.2104373572969915e-01  6.7465295399937314e-03  9.6075788037768457e-03
9.000000000000000e-01  5.9094653914556552e-03  9.9456822423494955e-03  6.6894649235252646e-01 -7.2707378443973203e-01  6.6860208996392489e-01 -7.2687080581487118e-01  6.9518149277043558e-03  9.7106433770493862e-03
9.100000000000000e-01  5.9652669255343049e-03  9.8178586678985685e-03  6.6205000022754690e-01 -7.3312675144616779e-01  6.6159914985890667e-01 -7.3290103787421912e-01  7.2341259054012784e-03  9.6010267653259592e-03
9.200000000000000e-01  6.0330605506164741e-03  9.7468814796197786e-03  6.5516926938819464e-01 -7.3903342494173618e-01  6.5493196630435679e-01 -7.3869792867372830e-01  6.9991988460907442e-03  9.6067856389918833e-03
