# GHz S RI R 50

1.000000000000000e-02  6.9499647923773258e-06  9.4875863103674620e-05  9.9915171705443884e-01 -1.0832102906293904e-02  9.9915171705443884e-01 -1.0832102906293904e-02  6.6507996035605142e-06  9.4895281810392600e-05
2.000000000000000e-02  5.5609672267892646e-06  1.8486135007647508e-04  9.9962981957676844e-01 -2.0983954082024702e-02  9.9962981957676833e-01 -2.0983954082024702e-02  4.3932216134127533e-06  1.8489211332365613e-04
3.000000000000000e-02  1.3088008947545876e-05  2.7465243041510982e-04  9.9907371431290803e-01 -3.1144117011784902e-02  9.9907371431290881e-01 -3.1144117011784919e-02  1.0483087208807902e-05  2.7476132883674613e-04
4.000000000000000e-02  2.1093031119930061e-05  3.6473791724393571e-04  9.9864065399785285e-01 -4.1360160665840667e-02  9.9864065399785318e-01 -4.1360160665840688e-02  1.6478772439445479e-05  3.6497120633822928e-04
5.000000000000000e-02  3.1910967714596815e-05  4.5476868920894977e-04  9.9801063880664753e-01 -5.1603880898860671e-02  9.9801063880664675e-01 -5.1603880898860630e-02  2.4717420676607577e-05  4.5520936859616296e-04
6.000000000000000e-02  4.4204921774746212e-05  5.4387269078580555e-04  9.9735719453054983e-01 -6.1751493543043587e-02  9.9735719453054983e-01 -6.1751493543043601e-02  3.3877600313637892e-05  5.4460422941297155e-04
7.000000000000001e-02  6.0040787192619765e-05  6.3219456193696212e-04  9.9639621163772696e-01 -7.1853437957309030e-02  9.9639621163772685e-01 -7.1853437957309030e-02  4.6029830845048213e-05  6.3335388556126670e-04
8.000000000000000e-02  7.7384715987831635e-05  7.2042259686027894e-04  9.9541306235753257e-01 -8.1987659660482201e-02  9.9541306235753257e-01 -8.1987659660482201e-02  5.9131210315915027e-05  7.2212948681241922e-04
9.000000000000001e-02  9.6672460201165924e-05  8.0869388457324850e-04  9.9435183138298866e-01 -9.2183594068538446e-02  9.9435183138298755e-01 -9.2183594068538433e-02  7.3614455819663336e-05  8.1109149009276553e-04
1.000000000000000e-01  1.1797673997705459e-04  8.9618508280607610e-04  9.9318921576067731e-01 -1.0233623483790733e-01  9.9318921576067765e-01 -1.0233623483790733e-01  8.9575278580245849e-05  8.9943476084863199e-04
1.100000000000000e-01  1.4015445139275643e-04  9.8295229980880977e-04  9.9207969251626860e-01 -1.1243578148071308e-01  9.9207969251626849e-01 -1.1243578148071309e-01  1.0587554479599177e-04  9.8719592283678936e-04
1.200000000000000e-01  1.6535509846602386e-04  1.0688137748883235e-03  9.9072485234535479e-01 -1.2250664015201893e-01  9.9072485234535435e-01 -1.2250664015201891e-01  1.2467630099396236e-04  1.0742740832537503e-03
1.300000000000000e-01  1.9222745367147176e-04  1.1536420246345718e-03  9.8930290172096258e-01 -1.3251055505143666e-01  9.8930290172096202e-01 -1.3251055505143663e-01  1.4463886924997080e-04  1.1605167100087748e-03
1.400000000000000e-01  2.2071105147719768e-04  1.2376136575064979e-03  9.8782356428916751e-01 -1.4247476088062466e-01  9.8782356428916795e-01 -1.4247476088062475e-01  1.6570421877092030e-04  1.2461116469500979e-03
1.500000000000000e-01  2.5021690963968713e-04  1.3211365426089193e-03  9.8637615201981765e-01 -1.5244217065961235e-01  9.8637615201981776e-01 -1.5244217065961246e-01  1.8727302346911850e-04  1.3314545194004145e-03
1.600000000000000e-01  2.8272542185684037e-04  1.4036076432785143e-03  9.8467493796473760e-01 -1.6239269666219910e-01  9.8467493796473704e-01 -1.6239269666219910e-01  2.1135598782933492e-04  1.4160414595704271e-03
1.700000000000000e-01  3.1723413294947560e-04  1.4852812453638568e-03  9.8286153622089145e-01 -1.7234099688868296e-01  9.8286153622089245e-01 -1.7234099688868304e-01  2.3694720388316395e-04  1.5001030158200556e-03
1.800000000000000e-01  3.5357746321296288e-04  1.5658079516732595e-03  9.8094546675344918e-01 -1.8224139038002587e-01  9.8094546675344907e-01 -1.8224139038002587e-01  2.6390551064725038e-04  1.5832980194095331e-03
1.900000000000000e-01  3.9161668307602056e-04  1.6454784097369259e-03  9.7895321922962963e-01 -1.9213429999072709e-01  9.7895321922963008e-01 -1.9213429999072712e-01  2.9208579717644436e-04  1.6659246964110396e-03
2.000000000000000e-01  4.3142950815255193e-04  1.7241439869246124e-03  9.7686779891618003e-01 -2.0200827541176930e-01  9.7686779891618025e-01 -2.0200827541176927e-01  3.2158108908626396e-04  1.7478529961322223e-03
2.100000000000000e-01  4.7235960330040035e-04  1.8023839141538527e-03  9.7479871551920816e-01 -2.1192050864015938e-01  9.7479871551920794e-01 -2.1192050864015946e-01  3.5170880225015428e-04  1.8296374094833861e-03
2.200000000000000e-01  5.1608003489211039e-04  1.8789155299606670e-03  9.7247036218996230e-01 -2.2177239652395581e-01  9.7247036218996319e-01 -2.2177239652395600e-01  3.8422485032206912e-04  1.9101098908431606e-03
2.300000000000000e-01  5.6126479131789100e-04  1.9546155325944280e-03  9.7009357840120702e-01 -2.3163506517072469e-01  9.7009357840120691e-01 -2.3163506517072477e-01  4.1776048328080311e-04  1.9900833851929306e-03
2.400000000000000e-01  6.0807435463682881e-04  2.0286113296978632e-03  9.6760674002186686e-01 -2.4140473314284813e-01  9.6760674002186686e-01 -2.4140473314284813e-01  4.5254223978855219e-04  2.0687088691096998e-03
2.500000000000000e-01  6.5627734212033578e-04  2.1013711627093554e-03  9.6505804304838094e-01 -2.5113870761562701e-01  9.6505804304838083e-01 -2.5113870761562701e-01  4.8831956827719600e-04  2.1464516409231285e-03
2.600000000000000e-01  7.0449523464193660e-04  2.1736173464074948e-03  9.6266301261941667e-01 -2.6086785153385106e-01  9.6266301261941667e-01 -2.6086785153385095e-01  5.2367120904992653e-04  2.2239441586717514e-03
2.700000000000000e-01  7.5614558235148437e-04  2.2435212167809053e-03  9.5987828177867984e-01 -2.7052582164756284e-01  9.5987828177867951e-01 -2.7052582164756267e-01  5.6215743108034132e-04  2.2996196158911273e-03
2.800000000000000e-01  8.0926245321875684e-04  2.3119475132485092e-03  9.5700205259662330e-01 -2.8013814465753306e-01  9.5700205259662396e-01 -2.8013814465753323e-01  6.0176372328547422e-04  2.3742155962523420e-03
2.900000000000000e-01  8.6394290387999942e-04  2.3789247201436172e-03  9.5402033149983279e-01 -2.8971997079098094e-01  9.5402033149983290e-01 -2.8971997079098083e-01  6.4259689401450907e-04  2.4477809442038962e-03
3.000000000000000e-01  9.1981860840972384e-04  2.4444042799598390e-03  9.5097568004194599e-01 -2.9925029604496262e-01  9.5097568004194577e-01 -2.9925029604496262e-01  6.8430462211625071e-04  2.5202492527283877e-03
3.100000000000000e-01  9.7728239639872407e-04  2.5084310086006898e-03  9.4781693540649714e-01 -3.0876325370680258e-01  9.4781693540649681e-01 -3.0876325370680247e-01  7.2728812013192652e-04  2.5917098545293915e-03
3.200000000000000e-01  1.0361664556255614e-03  2.5711197511576558e-03  9.4457086265620571e-01 -3.1827038682937236e-01  9.4457086265620571e-01 -3.1827038682937236e-01  7.7138127254149005e-04  2.6622760559002973e-03
3.300000000000000e-01  1.0969787925068687e-03  2.6325310799709327e-03  9.4117496124094124e-01 -3.2781824266612641e-01  9.4117496124094147e-01 -3.2781824266612664e-01  8.1709783371782310e-04  2.7320676328772570e-03
3.400000000000000e-01  1.1586596794836502e-03  2.6922560806779904e-03  9.3773744977938323e-01 -3.3729373405754992e-01  9.3773744977938356e-01 -3.3729373405755003e-01  8.6342736612463674e-04  2.8005910472233414e-03
3.500000000000000e-01  1.2216545505138641e-03  2.7501580346466501e-03  9.3418844590357142e-01 -3.4671368218854426e-01  9.3418844590357186e-01 -3.4671368218854431e-01  9.1084279588316149e-04  2.8677607669512313e-03
3.600000000000000e-01  1.2857900894034566e-03  2.8063733307072511e-03  9.3055558887358536e-01 -3.5609001520769562e-01  9.3055558887358625e-01 -3.5609001520769568e-01  9.5917214934420085e-04  2.9337071670882918e-03
3.700000000000000e-01  1.3511244491294359e-03  2.8608113333663011e-03  9.2682186779240017e-01 -3.6542137889083437e-01  9.2682186779240017e-01 -3.6542137889083437e-01  1.0084970613260271e-03  2.9983554632851037e-03
3.800000000000000e-01  1.4175606131592621e-03  2.9137274918372745e-03  9.2301509282941763e-01 -3.7473895613727348e-01  9.2301509282941718e-01 -3.7473895613727348e-01  1.0587083581158636e-03  3.0619616254974218e-03
3.900000000000000e-01  1.4851187733804904e-03  2.9646642107596854e-03  9.1909584642389452e-01 -3.8399316152136703e-01  9.1909584642389452e-01 -3.8399316152136703e-01  1.1098886880403381e-03  3.1240793122047973e-03
4.000000000000000e-01  1.5528877828808682e-03  3.0146077999565969e-03  9.1524981942313788e-01 -3.9324052510256435e-01  9.1524981942313799e-01 -3.9324052510256441e-01  1.1610325543214249e-03  3.1856056875327701e-03
4.100000000000000e-01  1.6223778756658388e-03  3.0619860919900406e-03  9.1116463149442994e-01 -4.0241014859485202e-01  9.1116463149443006e-01 -4.0241014859485214e-01  1.2138400455020718e-03  3.2451394269073018e-03
4.200000000000000e-01  1.6927738906407147e-03  3.1074024684169576e-03  9.0698327156352410e-01 -4.1152025880153270e-01  9.0698327156352421e-01 -4.1152025880153265e-01  1.2674459127152719e-03  3.3032048708628151e-03
4.300000000000000e-01  1.7640730119593859e-03  3.1513354592756821e-03  9.0274271846362852e-01 -4.2063462092869269e-01  9.0274271846362875e-01 -4.2063462092869280e-01  1.3218073574189091e-03  3.3602897467310930e-03
4.400000000000000e-01  1.8364617831393528e-03  3.1930502211277439e-03  8.9835540147979875e-01 -4.2968689670627375e-01  8.9835540147979842e-01 -4.2968689670627364e-01  1.3772135877344910e-03  3.4156876967899609e-03
4.500000000000000e-01  1.9095798646395050e-03  3.2327130495066777e-03  8.9387406241645984e-01 -4.3867323701446875e-01  8.9387406241645972e-01 -4.3867323701446870e-01  1.4333014425240455e-03  3.4695302869086663e-03
4.600000000000000e-01  1.9833290835346755e-03  3.2704306707839318e-03  8.8931538253946874e-01 -4.4760340438948565e-01  8.8931538253946885e-01 -4.4760340438948565e-01  1.4899764363171238e-03  3.5219188854624444e-03
4.700000000000000e-01  2.0575615904863368e-03  3.3062237528218067e-03  8.8469445308975547e-01 -4.5647143783617061e-01  8.8469445308975514e-01 -4.5647143783617061e-01  1.5471040765007490e-03  3.5728611883689330e-03
4.800000000000000e-01  2.1325360698129427e-03  3.3402739600455105e-03  8.7999465666689081e-01 -4.6532800352912324e-01  8.7999465666689070e-01 -4.6532800352912324e-01  1.6049372685690707e-03  3.6225786436883873e-03
4.900000000000000e-01  2.2082153698146142e-03  3.3722379150657859e-03  8.7518441484162468e-01 -4.7413631254532279e-01  8.7518441484162457e-01 -4.7413631254532274e-01  1.6635002856674695e-03  3.6707278573038602e-03
5.000000000000000e-01  2.2844352874214638e-03  3.4022346253087489e-03  8.7029014516183156e-01 -4.8290061652185257e-01  8.7029014516183156e-01 -4.8290061652185223e-01  1.7226301315632568e-03  3.7174125605778105e-03
5.100000000000000e-01  2.3611747022731682e-03  3.4303373496940258e-03  8.6531804267205403e-01 -4.9163305756607989e-01  8.6531804267205459e-01 -4.9163305756608006e-01  1.7823129347380084e-03  3.7627088704214190e-03
5.200000000000000e-01  2.4382217146305760e-03  3.4562779477053298e-03  8.6026024667146639e-01 -5.0028766859226703e-01  8.6026024667146639e-01 -5.0028766859226714e-01  1.8423900130884901e-03  3.8063216160186208e-03
5.300000000000000e-01  2.5154610452288386e-03  3.4800449239629052e-03  8.5512262590217458e-01 -5.0885671414007327e-01  8.5512262590217458e-01 -5.0885671414007350e-01  1.9027656178279121e-03  3.8482255658368607e-03
5.400000000000000e-01  2.5933696336874678e-03  3.5018744145997984e-03  8.4987377508088480e-01 -5.1742352698124117e-01  8.4987377508088502e-01 -5.1742352698124128e-01  1.9639061291532997e-03  3.8887310673147652e-03
5.500000000000000e-01  2.6715462569605322e-03  3.5215470369251867e-03  8.4452978627290842e-01 -5.2592792527325249e-01  8.4452978627290898e-01 -5.2592792527325261e-01  2.0254571736532737e-03  3.9275627440141540e-03
5.600000000000001e-01  2.7497592151720721e-03  3.5391840157609688e-03  8.3912383392322099e-01 -5.3436282707664495e-01  8.3912383392322165e-01 -5.3436282707664517e-01  2.0871854632231583e-03  3.9648107451593665e-03
5.700000000000001e-01  2.8280216204117823e-03  3.5546507954869002e-03  8.3363387352091800e-01 -5.4272074992870967e-01  8.3363387352091878e-01 -5.4272074992870989e-01  2.1491432977996049e-03  4.0003417382732205e-03
5.800000000000001e-01  2.9064304588671793e-03  3.5681001983605297e-03  8.2806248654760117e-01 -5.5103473890295585e-01  8.2806248654760173e-01 -5.5103473890295607e-01  2.2114247908062456e-03  4.0343266079397718e-03
5.900000000000001e-01  2.9848142617659606e-03  3.5795320277951861e-03  8.2242283582389186e-01 -5.5929028286346993e-01  8.2242283582389220e-01 -5.5929028286347049e-01  2.2738748762798256e-03  4.0667396933441206e-03
6.000000000000001e-01  3.0632476722721224e-03  3.5888489089603015e-03  8.1669095342824827e-01 -5.6749243708293229e-01  8.1669095342824827e-01 -5.6749243708293273e-01  2.3366040580576476e-03  4.0974945049415817e-03
6.100000000000000e-01  3.1416388220026604e-03  3.5961081173360165e-03  8.1087823003121806e-01 -5.7564201733639309e-01  8.1087823003121806e-01 -5.7564201733639309e-01  2.3995295644444717e-03  4.1266348907794716e-03
6.200000000000000e-01  3.2198295687441572e-03  3.6012864978078097e-03  8.0499215416973058e-01 -5.8372289234708585e-01  8.0499215416973113e-01 -5.8372289234708563e-01  2.4625137689688894e-03  4.1541108329170295e-03
6.300000000000000e-01  3.2979240228536203e-03  3.6049546610472318e-03  7.9909186621897543e-01 -5.9180726720816812e-01  7.9909186621897543e-01 -5.9180726720816779e-01  2.5255855779350292e-03  4.1805214858616768e-03
6.400000000000000e-01  3.3757452673464639e-03  3.6057678233855791e-03  7.9301494807122619e-01 -5.9975300846200319e-01  7.9301494807122674e-01 -5.9975300846200341e-01  2.5888124273839332e-03  4.2044626491016344e-03
6.500000000000000e-01  3.4532306405498587e-03  3.6046593651184108e-03  7.8688191066828372e-01 -6.0764523568070150e-01  7.8688191066828350e-01 -6.0764523568070139e-01  2.6519926870311097e-03  4.2268738186237945e-03
6.600000000000000e-01  3.5305492082319564e-03  3.6015327755868605e-03  7.8066047015325535e-01 -6.1550373834289751e-01  7.8066047015325546e-01 -6.1550373834289784e-01  2.7153360564530445e-03  4.2476841419313788e-03
6.700000000000000e-01  3.6072855953672902e-03  3.5963410006792577e-03  7.7437541597997805e-01 -6.2327404624674121e-01  7.7437541597997772e-01 -6.2327404624674110e-01  2.7784451545749419e-03  4.2667686813031864e-03
6.800000000000000e-01  3.6835156215788774e-03  3.5889871599795054e-03  7.6800029360907340e-01 -6.3096405509498898e-01  7.6800029360907307e-01 -6.3096405509498876e-01  2.8414357494288838e-03  4.2840365620865854e-03
6.900000000000001e-01  3.7592499045540407e-03  3.5797102028398589e-03  7.6156197701948669e-01 -6.3860115523148331e-01  7.6156197701948669e-01 -6.3860115523148286e-01  2.9042954654836415e-03  4.2997312109455512e-03
7.000000000000001e-01  3.8344326559104896e-03  3.5684202578254208e-03  7.5504710310310719e-01 -6.4617592286102976e-01  7.5504710310310708e-01 -6.4617592286102954e-01  2.9670037060522650e-03  4.3137452923581602e-03
7.100000000000001e-01  3.9090232985076554e-03  3.5549065530185095e-03  7.4842229312708874e-01 -6.5367295711783380e-01  7.4842229312708819e-01 -6.5367295711783335e-01  3.0295803225903325e-03  4.3258476600643485e-03
7.200000000000001e-01  3.9828641781030722e-03  3.5393713005648884e-03  7.4172245273987292e-01 -6.6109151358355256e-01  7.4172245273987247e-01 -6.6109151358355234e-01  3.0918450725420741e-03  4.3362103039593473e-03
7.300000000000001e-01  4.0559773281193968e-03  3.5221541349727803e-03  7.3499109819228370e-01 -6.6846476230227325e-01  7.3499109819228403e-01 -6.6846476230227336e-01  3.1537736242289445e-03  4.3451837487991987e-03
7.400000000000000e-01  4.1282667761547874e-03  3.5029610256793187e-03  7.2818558765656205e-01 -6.7576233930199991e-01  7.2818558765656149e-01 -6.7576233930199958e-01  3.2153441833411901e-03  4.3524369776625320e-03
7.500000000000000e-01  4.1998347325441724e-03  3.4818015691264930e-03  7.2129461157410568e-01 -6.8300705420171048e-01  7.2129461157410601e-01 -6.8300705420171071e-01  3.2766827046077939e-03  4.3579933103197284e-03
7.600000000000000e-01  4.2703885574447665e-03  3.4588035398056289e-03  7.1435112721652561e-01 -6.9016798925174450e-01  7.1435112721652561e-01 -6.9016798925174472e-01  3.3374780432795224e-03  4.3619177241702957e-03
7.700000000000000e-01  4.3400224573693271e-03  3.4338120145127608e-03  7.0731840021816461e-01 -6.9725616733175577e-01  7.0731840021816461e-01 -6.9725616733175610e-01  3.3978820273136809e-03  4.3640584627607148e-03
7.800000000000000e-01  4.4085718544212334e-03  3.4070736219978803e-03  7.0023885694830856e-01 -7.0426613231275936e-01  7.0023885694830879e-01 -7.0426613231275981e-01  3.4576899971022986e-03  4.3646293614417941e-03
7.900000000000000e-01  4.4760923885942029e-03  3.3785160915877819e-03  6.9309158709395779e-01 -7.1120802882243150e-01  6.9309158709395813e-01 -7.1120802882243184e-01  3.5169960260044504e-03  4.3635567095199491e-03
8.000000000000000e-01  4.5425773662034295e-03  3.3482224049346289e-03  6.8588470851710670e-01 -7.1809110716015523e-01  6.8588470851710670e-01 -7.1809110716015534e-01  3.5757953468643902e-03  4.3609168407218249e-03
8.100000000000001e-01  4.6078314761480079e-03  3.3158632034224729e-03  6.7856714100880500e-01 -7.2487400218932918e-01  6.7856714100880489e-01 -7.2487400218932918e-01  3.6339780276103970e-03  4.3563055678844734e-03
8.200000000000001e-01  4.6719895151554457e-03  3.2819281019793745e-03  6.7120693209982041e-01 -7.3160871003762185e-01  6.7120693209982030e-01 -7.3160871003762196e-01  3.6915960505918052e-03  4.3502605860222072e-03
8.300000000000001e-01  4.7348047611361728e-03  3.2463085741094582e-03  6.6379076329128561e-01 -7.3825443733879936e-01  6.6379076329128561e-01 -7.3825443733879925e-01  3.7484322462275552e-03  4.3425974656681864e-03
8.400000000000001e-01  4.7964003134333116e-03  3.2088459271796530e-03  6.5628008954502282e-01 -7.4483233265134408e-01  6.5628008954502282e-01 -7.4483233265134441e-01  3.8046772413116779e-03  4.3331630341180245e-03
8.500000000000001e-01  4.8565364035296158e-03  3.1698300669147409e-03  6.4872597961036993e-01 -7.5131865489275151e-01  6.4872597961036993e-01 -7.5131865489275185e-01  3.8600253728259077e-03  4.3221945218158151e-03
8.600000000000001e-01  4.9152911121942942e-03  3.1291006021700782e-03  6.4109119239556112e-01 -7.5772749465119538e-01  6.4109119239556100e-01 -7.5772749465119515e-01  3.9146203875255652e-03  4.3095246543326674e-03
8.700000000000001e-01  4.9725949203624905e-03  3.0867388882737626e-03  6.3338479264119041e-01 -7.6405629152219989e-01  6.3338479264119063e-01 -7.6405629152219967e-01  3.9683888355517265e-03  4.2952077641050307e-03
8.800000000000000e-01  5.0284462938169740e-03  3.0428981961301534e-03  6.2562681081800720e-01 -7.7031486573220742e-01  6.2562681081800742e-01 -7.7031486573220731e-01  4.0213100599017313e-03  4.2793934089376809e-03
8.900000000000000e-01  5.0827758767185462e-03  2.9975610728634932e-03  6.1780920504151049e-01 -7.7649661672607528e-01  6.1780920504151038e-01 -7.7649661672607539e-01  4.0733339212315886e-03  4.2620291190712950e-03
9.000000000000000e-01  5.1355498123872084e-03  2.9506893522351012e-03  6.0991905057058560e-01 -7.8260159888452452e-01  6.0991905057058560e-01 -7.8260159888452463e-01  4.1244551946470667e-03  4.2430477859164437e-03
9.100000000000000e-01  5.1866906250931663e-03  2.9025648876841582e-03  6.0200033514534357e-01 -7.8862558743845790e-01  6.0200033514534368e-01 -7.8862558743845768e-01  4.1745315537414975e-03  4.2227175518580705e-03
9.200000000000000e-01  5.2361816426171551e-03  2.8530306865813793e-03  5.9401846129448843e-01 -7.9456955393017603e-01  5.9401846129448843e-01 -7.9456955393017625e-01  4.2236079894934896e-03  4.2008454786842137e-03
