# GHz S RI R 50

1.000000000000000e-02  4.5738723465864337e-06  6.4310842322602062e-05  9.9915272146242184e-01 -1.0732895229587492e-02  9.9915272146242184e-01 -1.0732895229587485e-02  4.8491237592606780e-06  6.4284553456472949e-05
2.000000000000000e-02  2.8351773245323885e-06  1.2519672055897322e-04  9.9963396438953367e-01 -2.0785384247991246e-02  9.9963396438953378e-01 -2.0785384247991239e-02  3.8978310523495313e-06  1.2516586181045573e-04
3.000000000000000e-02  6.8053253376298340e-06  1.8600925688722550e-04  9.9908293277175675e-01 -3.0846399618949465e-02  9.9908293277175686e-01 -3.0846399618949465e-02  9.1656139304657092e-06  1.8589788706574397e-04
4.000000000000000e-02  1.0601125222777130e-05  2.4705714224131418e-04  9.9865700139996805e-01 -4.0963362253092724e-02  9.9865700139996816e-01 -4.0963362253092730e-02  1.4775522885685888e-05  2.4682745810668635e-04
5.000000000000000e-02  1.5850204222356300e-05  3.0813191242298342e-04  9.9803614525715256e-01 -5.1108188213095908e-02  9.9803614525715256e-01 -5.1108188213095908e-02  2.2353245039616230e-05  3.0770376293422626e-04
6.000000000000000e-02  2.1638278812814299e-05  3.6861972330492408e-04  9.9739383943920512e-01 -6.1157037619719412e-02  9.9739383943920545e-01 -6.1157037619719433e-02  3.0964126408579917e-05  3.6792060077405967e-04
7.000000000000001e-02  2.9406145806630976e-05  4.2867563811551849e-04  9.9644595611564268e-01 -7.1160559440420615e-02  9.9644595611564302e-01 -7.1160559440420629e-02  4.2045157349345326e-05  4.2756751709500235e-04
8.000000000000000e-02  3.7726362167506303e-05  4.8875151107537857e-04  9.9547794082371288e-01 -8.1196570300144918e-02  9.9547794082371177e-01 -8.1196570300144807e-02  5.4182380915932318e-05  4.8712873165135417e-04
9.000000000000001e-02  4.6896581957161368e-05  5.4896167462091549e-04  9.9443390941950993e-01 -9.1294564925593125e-02  9.9443390941950938e-01 -9.1294564925593097e-02  6.7679781391305786e-05  5.4669502951528706e-04
1.000000000000000e-01  5.6991248008261345e-05  6.0874755967235412e-04  9.9329047065131348e-01 -1.0134957435388664e-01  9.9329047065131304e-01 -1.0134957435388663e-01  8.2582512467129377e-05  6.0569034645907539e-04
1.100000000000000e-01  6.7220763014617943e-05  6.6811918730473781e-04  9.9220209128060299e-01 -1.1135165809710795e-01  9.9220209128060266e-01 -1.1135165809710787e-01  9.8094681339500837e-05  6.6415944452558767e-04
1.200000000000000e-01  7.9086505164764384e-05  7.2703597894851590e-04  9.9087034925202999e-01 -1.2132556547810254e-01  9.9087034925202999e-01 -1.2132556547810248e-01  1.1570795909116923e-04  7.2195829964490262e-04
1.300000000000000e-01  9.1662463181584983e-05  7.8537480004669375e-04  9.8947340837188946e-01 -1.3123287969656022e-01  9.8947340837188924e-01 -1.3123287969656022e-01  1.3447990012992384e-04  7.7900547534921619e-04
1.400000000000000e-01  1.0490570142326185e-04  8.4326454596527368e-04  9.8802101108005869e-01 -1.4110084425407346e-01  9.8802101108005902e-01 -1.4110084425407349e-01  1.5436829708060133e-04  8.3542234080528866e-04
1.500000000000000e-01  1.1839521220383767e-04  9.0096683906008802e-04  9.8660252940885929e-01 -1.5097225946197582e-01  9.8660252940885995e-01 -1.5097225946197587e-01  1.7496702125341504e-04  8.9149605194117107e-04
1.600000000000000e-01  1.3352935168137471e-04  9.5817037229663996e-04  9.8493218027212537e-01 -1.6082748194495267e-01  9.8493218027212448e-01 -1.6082748194495258e-01  1.9764342608067747e-04  9.4678574632779645e-04
1.700000000000000e-01  1.4960707898878817e-04  1.0150174420936783e-03  9.8315160987340555e-01 -1.7068100681439621e-01  9.8315160987340477e-01 -1.7068100681439613e-01  2.2170208022111087e-04  1.0014745509815191e-03
1.800000000000000e-01  1.6653736800707105e-04  1.0712704618980762e-03  9.8127025631357134e-01 -1.8048716548636012e-01  9.8127025631357134e-01 -1.8048716548636023e-01  2.4702218261490400e-04  1.0553193865686303e-03
1.900000000000000e-01  1.8421345530618280e-04  1.1271319406042308e-03  9.7931467375133641e-01 -1.9028636480159156e-01  9.7931467375133663e-01 -1.9028636480159161e-01  2.7350904465773369e-04  1.1085210599073433e-03
2.000000000000000e-01  2.0270153317784601e-04  1.1825143249576419e-03  9.7726784082803120e-01 -2.0006721001494507e-01  9.7726784082803120e-01 -2.0006721001494515e-01  3.0121282165610245e-04  1.1609732112358849e-03
2.100000000000000e-01  2.2151889069205928e-04  1.2377806194804324e-03  9.7523939087248057e-01 -2.0988669670489654e-01  9.7523939087248035e-01 -2.0988669670489657e-01  3.2968584575125790e-04  1.2130835235711068e-03
2.200000000000000e-01  2.4189738446951724e-04  1.2921735314550134e-03  9.7295348790931735e-01 -2.1964681241584014e-01  9.7295348790931768e-01 -2.1964681241584019e-01  3.6006527176935693e-04  1.2639379453955090e-03
2.300000000000000e-01  2.6287678067073465e-04  1.3462164756254693e-03  9.7062113490670965e-01 -2.2941828359137711e-01  9.7062113490670898e-01 -2.2941828359137698e-01  3.9144398905926374e-04  1.3141592715966129e-03
2.400000000000000e-01  2.8463441847766140e-04  1.3993350017096693e-03  9.6818045719676049e-01 -2.3909748141078371e-01  9.6818045719676027e-01 -2.3909748141078369e-01  4.2391680381707278e-04  1.3631401280428223e-03
2.500000000000000e-01  3.0698666345899101e-04  1.4518405525713622e-03  9.6567976994881777e-01 -2.4874163080234629e-01  9.6567976994881832e-01 -2.4874163080234649e-01  4.5732873266951849e-04  1.4112060708488501e-03
2.600000000000000e-01  3.2894889195095696e-04  1.5041201800761368e-03  9.6333468664317079e-01 -2.5838105736732769e-01  9.6333468664317012e-01 -2.5838105736732747e-01  4.9074082315328721e-04  1.4588786098133034e-03
2.700000000000000e-01  3.5298719470343428e-04  1.5552135666617147e-03  9.6060161212883632e-01 -2.6795082801579084e-01  9.6060161212883644e-01 -2.6795082801579084e-01  5.2647319719607833e-04  1.5048329647355029e-03
2.800000000000000e-01  3.7770829609689422e-04  1.6055651855992252e-03  9.5777882475810538e-01 -2.7747575593631418e-01  9.5777882475810450e-01 -2.7747575593631413e-01  5.6318205557969760e-04  1.5496985404335275e-03
2.900000000000000e-01  4.0318198218206562e-04  1.6552119122754947e-03  9.5485235977027505e-01 -2.8697106035507469e-01  9.5485235977027572e-01 -2.8697106035507475e-01  6.0093161475152689e-04  1.5934910784462051e-03
3.000000000000000e-01  4.2917144416869754e-04  1.7040979117042038e-03  9.5186471052163046e-01 -2.9641563955267475e-01  9.5186471052163102e-01 -2.9641563955267480e-01  6.3946457342537561e-04  1.6361830629230687e-03
3.100000000000000e-01  4.5594336215282877e-04  1.7522965374982434e-03  9.4876479960315951e-01 -3.0584380656796767e-01  9.4876479960315951e-01 -3.0584380656796784e-01  6.7904870401837996e-04  1.6777950368353832e-03
3.200000000000000e-01  4.8338018836930176e-04  1.7998783580004151e-03  9.4557942598948186e-01 -3.1526705409732370e-01  9.4557942598948164e-01 -3.1526705409732353e-01  7.1956819590252258e-04  1.7184071520365382e-03
3.300000000000000e-01  5.1181961880738560e-04  1.8469403869475788e-03  9.4224623474756719e-01 -3.2473216501906910e-01  9.4224623474756686e-01 -3.2473216501906904e-01  7.6136943862852122e-04  1.7580458919969574e-03
3.400000000000000e-01  5.4059967164096800e-04  1.8931171483148859e-03  9.3887308316297902e-01 -3.3412572007109165e-01  9.3887308316297891e-01 -3.3412572007109170e-01  8.0371321305573458e-04  1.7964544404791805e-03
3.500000000000000e-01  5.7003891890179085e-04  1.9383684270287444e-03  9.3539011956920082e-01 -3.4346479789596290e-01  9.3539011956920115e-01 -3.4346479789596301e-01  8.4689731289663915e-04  1.8335271020307928e-03
3.600000000000000e-01  6.0001671523170392e-04  1.9827756805876101e-03  9.3182501181216693e-01 -3.5276126171942962e-01  9.3182501181216681e-01 -3.5276126171942968e-01  8.9080282838402251e-04  1.8693601698734344e-03
3.700000000000000e-01  6.3058847741920623e-04  2.0262923923525635e-03  9.2816072936369598e-01 -3.6201384477448650e-01  9.2816072936369554e-01 -3.6201384477448612e-01  9.3546309369095732e-04  1.9038887077372150e-03
3.800000000000000e-01  6.6167091062152529e-04  2.0690840271324123e-03  9.2442518942432184e-01 -3.7125365745200739e-01  9.2442518942432217e-01 -3.7125365745200739e-01  9.8081540897665257e-04  1.9372878959295348e-03
3.900000000000000e-01  6.9333293656978099e-04  2.1108585313684963e-03  9.2057877404389354e-01 -3.8043128462951042e-01  9.2057877404389421e-01 -3.8043128462951070e-01  1.0268560958071316e-03  1.9692438964832013e-03
4.000000000000000e-01  7.2487961364643976e-04  2.1521692853489773e-03  9.1680739709857506e-01 -3.8960255504595248e-01  9.1680739709857517e-01 -3.8960255504595237e-01  1.0729929912487105e-03  2.0004544104677007e-03
4.100000000000000e-01  7.5747797547906710e-04  2.1921570183520466e-03  9.1279835835046264e-01 -3.9869781764655204e-01  9.1279835835046319e-01 -3.9869781764655249e-01  1.1201988756754727e-03  2.0298024767896440e-03
4.200000000000000e-01  7.9053756197694481e-04  2.2311362205151828e-03  9.0869471261477275e-01 -4.0773477391953783e-01  9.0869471261477242e-01 -4.0773477391953783e-01  1.1679334565794584e-03  2.0577227067134704e-03
4.300000000000000e-01  8.2401071506623248e-04  2.2694232077093220e-03  9.0453369731750222e-01 -4.1677706501885792e-01  9.0453369731750166e-01 -4.1677706501885786e-01  1.2162070082198380e-03  2.0845379071283057e-03
4.400000000000000e-01  8.5810864202132467e-04  2.3065680615597934e-03  9.0022744428392898e-01 -4.2575874784956885e-01  9.0022744428392887e-01 -4.2575874784956863e-01  1.2651152675189736e-03  2.1097425063983780e-03
4.500000000000000e-01  8.9258765436119167e-04  2.3426442738373027e-03  8.9582866426318108e-01 -4.3467578017280156e-01  8.9582866426318075e-01 -4.3467578017280128e-01  1.3144148921085850e-03  2.1334611306952143e-03
4.600000000000000e-01  9.2738100976108117e-04  2.3777145488686029e-03  8.9135406502371717e-01 -4.4353787685107265e-01  8.9135406502371684e-01 -4.4353787685107260e-01  1.3640387791188924e-03  2.1557690007016472e-03
4.700000000000000e-01  9.6240025021389385e-04  2.4117791927163517e-03  8.8681869447356376e-01 -4.5233902858924263e-01  8.8681869447356332e-01 -4.5233902858924235e-01  1.4138837009843022e-03  2.1766854394242021e-03
4.800000000000000e-01  9.9779823502465039e-04  2.4449887280394412e-03  8.8220615724813323e-01 -4.6113000398035414e-01  8.8220615724813356e-01 -4.6113000398035436e-01  1.4641266561252293e-03  2.1963212408400226e-03
4.900000000000000e-01  1.0335993803066732e-03  2.4771231801362231e-03  8.7748468906445187e-01 -4.6987418811057252e-01  8.7748468906445154e-01 -4.6987418811057258e-01  1.5147232336888247e-03  2.2144458241730824e-03
5.000000000000000e-01  1.0696929157168662e-03  2.5082430499130150e-03  8.7268071660237179e-01 -4.7857573422437044e-01  8.7268071660237156e-01 -4.7857573422437027e-01  1.5655628508876105e-03  2.2311451679811198e-03
5.100000000000000e-01  1.1060648213572905e-03  2.5383955063360301e-03  8.6780048394550258e-01 -4.8724677893357310e-01  8.6780048394550247e-01 -4.8724677893357304e-01  1.6166295692556123e-03  2.2464682562707661e-03
5.200000000000000e-01  1.1426216573827532e-03  2.5673881205083679e-03  8.6283588218167784e-01 -4.9584141460751058e-01  8.6283588218167817e-01 -4.9584141460751052e-01  1.6677640720546005e-03  2.2602452350117628e-03
5.300000000000000e-01  1.1793013282677253e-03  2.5952030755207254e-03  8.5779271654825329e-01 -5.0435189942813241e-01  8.5779271654825329e-01 -5.0435189942813230e-01  1.7188831920411491e-03  2.2724746377022430e-03
5.400000000000000e-01  1.2163841222292715e-03  2.6220497215934543e-03  8.5264000122610362e-01 -5.1286176620062551e-01  8.5264000122610417e-01 -5.1286176620062596e-01  1.7703102800487487e-03  2.2832895622408888e-03
5.500000000000000e-01  1.2536518398867634e-03  2.6477435686623639e-03  8.4739349960950416e-01 -5.2131077236963164e-01  8.4739349960950450e-01 -5.2131077236963197e-01  1.8217609540457000e-03  2.2925633044051505e-03
5.600000000000001e-01  1.2909532863796145e-03  2.6723344545771226e-03  8.4208633110901554e-01 -5.2969167856897981e-01  8.4208633110901598e-01 -5.2969167856898003e-01  1.8730819878002680e-03  2.3003889056945324e-03
5.700000000000001e-01  1.3283221076153683e-03  2.6957413913795561e-03  8.3669638601370555e-01 -5.3799714491992101e-01  8.3669638601370511e-01 -5.3799714491992068e-01  1.9242690355755854e-03  2.3066772752391397e-03
5.800000000000001e-01  1.3658088195169283e-03  2.7180727717311479e-03  8.3122641381800344e-01 -5.4626022943856689e-01  8.3122641381800355e-01 -5.4626022943856678e-01  1.9753887098203889e-03  2.3115242948713323e-03
5.900000000000001e-01  1.4033151218175108e-03  2.7393082048100962e-03  8.2568948026657218e-01 -5.5446636639259328e-01  8.2568948026657196e-01 -5.5446636639259317e-01  2.0263219265083303e-03  2.3149397768470262e-03
6.000000000000001e-01  1.4409075339158451e-03  2.7593965592049938e-03  8.2006162798594273e-01 -5.6262077470178140e-01  8.2006162798594218e-01 -5.6262077470178118e-01  2.0771057557884345e-03  2.3168552451108110e-03
6.100000000000000e-01  1.4785303222915862e-03  2.7783622696240752e-03  8.1435423774751226e-01 -5.7072422830950476e-01  8.1435423774751203e-01 -5.7072422830950464e-01  2.1276766634779698e-03  2.3173141576079046e-03
6.200000000000000e-01  1.5160967789572689e-03  2.7961717106281207e-03  8.0857468363173968e-01 -5.7876057208404208e-01  8.0857468363173879e-01 -5.7876057208404175e-01  2.1779229128349748e-03  2.3163120286961874e-03
6.300000000000000e-01  1.5536120233337707e-03  2.8131880285591358e-03  8.0278254356757872e-01 -5.8680166876978446e-01  8.0278254356757861e-01 -5.8680166876978457e-01  2.2279458885294603e-03  2.3142152890737195e-03
6.400000000000000e-01  1.5911340891258182e-03  2.8285604683422265e-03  7.9681448058516957e-01 -5.9470640972830013e-01  7.9681448058516979e-01 -5.9470640972830002e-01  2.2775297842053772e-03  2.3101574390559177e-03
6.500000000000000e-01  1.6285219709097042e-03  2.8428556808420308e-03  7.9079152590051605e-01 -6.0255919557615401e-01  7.9079152590051660e-01 -6.0255919557615445e-01  2.3266910405021039e-03  2.3047544676010291e-03
6.600000000000000e-01  1.6658988806779547e-03  2.8560316685655820e-03  7.8468150666804770e-01 -6.1038004600879336e-01  7.8468150666804704e-01 -6.1038004600879314e-01  2.3755260674027025e-03  2.2979310571685958e-03
6.700000000000000e-01  1.7030231803078896e-03  2.8680092572082355e-03  7.7850884167844125e-01 -6.1811434664857878e-01  7.7850884167844192e-01 -6.1811434664857934e-01  2.4237541141611482e-03  2.2896890728862787e-03
6.800000000000000e-01  1.7399600963521249e-03  2.8787355290491156e-03  7.7224710114782724e-01 -6.2577019150803570e-01  7.7224710114782769e-01 -6.2577019150803570e-01  2.4714093739212719e-03  2.2799618965460545e-03
6.900000000000001e-01  1.7766967386263824e-03  2.8883550322111595e-03  7.6592332564949694e-01 -6.3337481561936126e-01  7.6592332564949683e-01 -6.3337481561936126e-01  2.5185106983683569e-03  2.2689047938798264e-03
7.000000000000001e-01  1.8132166567940572e-03  2.8968028628119395e-03  7.5952406956006513e-01 -6.4091890587902112e-01  7.5952406956006513e-01 -6.4091890587902123e-01  2.5650073220938770e-03  2.2564653111984945e-03
7.100000000000001e-01  1.8495249931814249e-03  2.9039415208021013e-03  7.5301582386573185e-01 -6.4838731814390882e-01  7.5301582386573163e-01 -6.4838731814390871e-01  2.6108460719177573e-03  2.2425125762327485e-03
7.200000000000001e-01  1.8855098952027653e-03  2.9098733422271458e-03  7.4643346908445141e-01 -6.5577909049492711e-01  7.4643346908445063e-01 -6.5577909049492689e-01  2.6559346511418453e-03  2.2271931441166714e-03
7.300000000000001e-01  1.9211563231207320e-03  2.9148039214072223e-03  7.3982074296038691e-01 -6.6312710230269567e-01  7.3982074296038680e-01 -6.6312710230269512e-01  2.7003120275391652e-03  2.2107248271808627e-03
7.400000000000000e-01  1.9564438995348168e-03  2.9185381510503186e-03  7.3313476296946989e-01 -6.7040130960617417e-01  7.3313476296946944e-01 -6.7040130960617350e-01  2.7438817017094758e-03  2.1929296354127473e-03
7.500000000000000e-01  1.9914408953121241e-03  2.9210865010446635e-03  7.2636436616062683e-01 -6.7762463024074182e-01  7.2636436616062683e-01 -6.7762463024074227e-01  2.7867015143389199e-03  2.1738052232517773e-03
7.600000000000000e-01  2.0259615828292230e-03  2.9224917687349027e-03  7.1954226368134055e-01 -6.8476591980395052e-01  7.1954226368134067e-01 -6.8476591980395018e-01  2.8285893117501008e-03  2.1534652219819266e-03
7.700000000000000e-01  2.0600852869667092e-03  2.9226618278486898e-03  7.1263177735699090e-01 -6.9183649868544450e-01  7.1263177735699113e-01 -6.9183649868544461e-01  2.8695804253984023e-03  2.1318034896201988e-03
7.800000000000000e-01  2.0936929530378065e-03  2.9217257193209236e-03  7.0567527366811234e-01 -6.9883060765613714e-01  7.0567527366811234e-01 -6.9883060765613714e-01  2.9095884887991993e-03  2.1089978050154675e-03
7.900000000000000e-01  2.1268319744527538e-03  2.9196372446898826e-03  6.9865189690829788e-01 -7.0575857011831711e-01  6.9865189690829799e-01 -7.0575857011831733e-01  2.9486329315640625e-03  2.0849985194378051e-03
8.000000000000000e-01  2.1594967885340999e-03  2.9164391916475297e-03  6.9156981912678617e-01 -7.1262959257400016e-01  6.9156981912678628e-01 -7.1262959257400060e-01  2.9867108049307848e-03  2.0598611280742080e-03
8.100000000000001e-01  2.1916009314010445e-03  2.9119009989050462e-03  6.8437760520100865e-01 -7.1940273468102844e-01  6.8437760520100910e-01 -7.1940273468102900e-01  3.0236484565317303e-03  2.0334031531673803e-03
8.200000000000001e-01  2.2231900792244828e-03  2.9063296759482826e-03  6.7714370290472237e-01 -7.2612947557057639e-01  6.7714370290472214e-01 -7.2612947557057606e-01  3.0595824109644547e-03  2.0059209833341763e-03
8.300000000000001e-01  2.2541255028120850e-03  2.8996277686395805e-03  6.6985444198168043e-01 -7.3276914042654073e-01  6.6985444198168020e-01 -7.3276914042654029e-01  3.0943346781208011e-03  1.9773801975023113e-03
8.400000000000001e-01  2.2845019802687815e-03  2.8916960830603767e-03  6.6247142411990634e-01 -7.3934321777466772e-01  6.6247142411990645e-01 -7.3934321777466772e-01  3.1279521077614159e-03  1.9476674287636896e-03
8.500000000000001e-01  2.3141493938067040e-03  2.8826870998655213e-03  6.5504550229025682e-01 -7.4582756102383307e-01  6.5504550229025615e-01 -7.4582756102383285e-01  3.1603130404396990e-03  1.9170020789517955e-03
8.600000000000001e-01  2.3431336796599336e-03  2.8724953260746509e-03  6.4753952539789428e-01 -7.5223659285292221e-01  6.4753952539789450e-01 -7.5223659285292221e-01  3.1914347358172959e-03  1.8852758954462088e-03
8.700000000000001e-01  2.3714080192230227e-03  2.8611551413393393e-03  6.3996251408334115e-01 -7.5856769803499213e-01  6.3996251408334126e-01 -7.5856769803499235e-01  3.2212744781834426e-03  1.8525538724139372e-03
8.800000000000000e-01  2.3989639202172119e-03  2.8487526176076690e-03  6.3233456288978351e-01 -7.6483054367353753e-01  6.3233456288978396e-01 -7.6483054367353775e-01  3.2498445336585431e-03  1.8189363686783918e-03
8.900000000000000e-01  2.4257621153864531e-03  2.8352596368353506e-03  6.2464755023473217e-01 -7.7101861481146716e-01  6.2464755023473140e-01 -7.7101861481146683e-01  3.2770890503983465e-03  1.7844265428946038e-03
9.000000000000000e-01  2.4517866990923353e-03  2.8206360331657718e-03  6.1688852813245143e-01 -7.7713209884245693e-01  6.1688852813245121e-01 -7.7713209884245660e-01  3.3029701178402229e-03  1.7490094212064848e-03
9.100000000000000e-01  2.4769710570491034e-03  2.8050474345494947e-03  6.0910142750742291e-01 -7.8316639450455905e-01  6.0910142750742280e-01 -7.8316639450455838e-01  3.3274756760835675e-03  1.7128794662820248e-03
9.200000000000000e-01  2.5013178078032703e-03  2.7883773257059981e-03  6.0125163288201000e-01 -7.8912279776103056e-01  6.0125163288200989e-01 -7.8912279776103023e-01  3.3505594629437089e-03  1.6759447850696950e-03
